<Qucs Dataset 0.0.17>
<indep b 20>
  +0.00000000000e+000
  +4.21052631579e-001
  +8.42105263158e-001
  +1.26315789474e+000
  +1.68421052632e+000
  +2.10526315789e+000
  +2.52631578947e+000
  +2.94736842105e+000
  +3.36842105263e+000
  +3.78947368421e+000
  +4.21052631579e+000
  +4.63157894737e+000
  +5.05263157895e+000
  +5.47368421053e+000
  +5.89473684211e+000
  +6.31578947368e+000
  +6.73684210526e+000
  +7.15789473684e+000
  +7.57894736842e+000
  +8.00000000000e+000
</indep>
<dep V1.I b>
  +0.00000000000e+000
  +0.00000000000e+000
  +0.00000000000e+000
  +0.00000000000e+000
  +0.00000000000e+000
  +0.00000000000e+000
  +0.00000000000e+000
  +0.00000000000e+000
  +0.00000000000e+000
  +0.00000000000e+000
  +0.00000000000e+000
  +0.00000000000e+000
  +0.00000000000e+000
  +0.00000000000e+000
  +0.00000000000e+000
  +0.00000000000e+000
  +0.00000000000e+000
  +0.00000000000e+000
  +0.00000000000e+000
  +0.00000000000e+000
</dep>
<dep _net1.V b>
  +0.00000000000e+000
  +4.21052631579e-001
  +8.42105263158e-001
  +1.26315789474e+000
  +1.68421052632e+000
  +2.10526315789e+000
  +2.52631578947e+000
  +2.94736842105e+000
  +3.36842105263e+000
  +3.78947368421e+000
  +4.21052631579e+000
  +4.63157894737e+000
  +5.05263157895e+000
  +5.47368421053e+000
  +5.89473684211e+000
  +6.31578947368e+000
  +6.73684210526e+000
  +7.15789473684e+000
  +7.57894736842e+000
  +8.00000000000e+000
</dep>
<dep _net0.V b>
  +0.00000000000e+000
  +4.21051787286e-001
  +8.42103561268e-001
  +1.26315530779e+000
  +1.68420701087e+000
  +2.10525865148e+000
  +2.52631020580e+000
  +2.94736164266e+000
  +3.36841291952e+000
  +3.78946397574e+000
  +4.21051472078e+000
  +4.63156501205e+000
  +5.05261460996e+000
  +5.47366307696e+000
  +5.89470951778e+000
  +6.31575176562e+000
  +6.73678287502e+000
  +7.15776174055e+000
  +7.49942849309e+000
  +7.49990882756e+000
</dep>
<dep ua.V b>
  +0.00000000000e+000
  +8.42103574571e-001
  +1.68420712254e+000
  +2.52631061558e+000
  +3.36841402175e+000
  +4.21051730297e+000
  +5.05262041160e+000
  +5.89472328532e+000
  +6.73682583904e+000
  +7.57892795148e+000
  +8.42102944155e+000
  +9.26313002409e+000
  +1.01052292199e+001
  +1.09473261539e+001
  +1.17894190356e+001
  +1.26315035312e+001
  +1.34735657500e+001
  +1.43155234811e+001
  +1.49988569862e+001
  +1.49998176551e+001
</dep>
