<Qucs Dataset 0.0.17>
<indep a 101>
  +0.00000000000e+000
  +1.00000000000e-002
  +2.00000000000e-002
  +3.00000000000e-002
  +4.00000000000e-002
  +5.00000000000e-002
  +6.00000000000e-002
  +7.00000000000e-002
  +8.00000000000e-002
  +9.00000000000e-002
  +1.00000000000e-001
  +1.10000000000e-001
  +1.20000000000e-001
  +1.30000000000e-001
  +1.40000000000e-001
  +1.50000000000e-001
  +1.60000000000e-001
  +1.70000000000e-001
  +1.80000000000e-001
  +1.90000000000e-001
  +2.00000000000e-001
  +2.10000000000e-001
  +2.20000000000e-001
  +2.30000000000e-001
  +2.40000000000e-001
  +2.50000000000e-001
  +2.60000000000e-001
  +2.70000000000e-001
  +2.80000000000e-001
  +2.90000000000e-001
  +3.00000000000e-001
  +3.10000000000e-001
  +3.20000000000e-001
  +3.30000000000e-001
  +3.40000000000e-001
  +3.50000000000e-001
  +3.60000000000e-001
  +3.70000000000e-001
  +3.80000000000e-001
  +3.90000000000e-001
  +4.00000000000e-001
  +4.10000000000e-001
  +4.20000000000e-001
  +4.30000000000e-001
  +4.40000000000e-001
  +4.50000000000e-001
  +4.60000000000e-001
  +4.70000000000e-001
  +4.80000000000e-001
  +4.90000000000e-001
  +5.00000000000e-001
  +5.10000000000e-001
  +5.20000000000e-001
  +5.30000000000e-001
  +5.40000000000e-001
  +5.50000000000e-001
  +5.60000000000e-001
  +5.70000000000e-001
  +5.80000000000e-001
  +5.90000000000e-001
  +6.00000000000e-001
  +6.10000000000e-001
  +6.20000000000e-001
  +6.30000000000e-001
  +6.40000000000e-001
  +6.50000000000e-001
  +6.60000000000e-001
  +6.70000000000e-001
  +6.80000000000e-001
  +6.90000000000e-001
  +7.00000000000e-001
  +7.10000000000e-001
  +7.20000000000e-001
  +7.30000000000e-001
  +7.40000000000e-001
  +7.50000000000e-001
  +7.60000000000e-001
  +7.70000000000e-001
  +7.80000000000e-001
  +7.90000000000e-001
  +8.00000000000e-001
  +8.10000000000e-001
  +8.20000000000e-001
  +8.30000000000e-001
  +8.40000000000e-001
  +8.50000000000e-001
  +8.60000000000e-001
  +8.70000000000e-001
  +8.80000000000e-001
  +8.90000000000e-001
  +9.00000000000e-001
  +9.10000000000e-001
  +9.20000000000e-001
  +9.30000000000e-001
  +9.40000000000e-001
  +9.50000000000e-001
  +9.60000000000e-001
  +9.70000000000e-001
  +9.80000000000e-001
  +9.90000000000e-001
  +1.00000000000e+000
</indep>
<dep y a>
  +0.00000000000e+000
  +5.00000000000e-001
  +1.00000000000e+000
  +1.50000000000e+000
  +2.00000000000e+000
  +2.50000000000e+000
  +3.00000000000e+000
  +3.50000000000e+000
  +4.00000000000e+000
  +4.50000000000e+000
  +5.00000000000e+000
  +5.50000000000e+000
  +6.00000000000e+000
  +6.50000000000e+000
  +7.00000000000e+000
  +7.50000000000e+000
  +8.00000000000e+000
  +8.50000000000e+000
  +9.00000000000e+000
  +9.50000000000e+000
  +1.00000000000e+001
  +1.05000000000e+001
  +1.10000000000e+001
  +1.15000000000e+001
  +1.20000000000e+001
  +1.25000000000e+001
  +1.30000000000e+001
  +1.35000000000e+001
  +1.40000000000e+001
  +1.45000000000e+001
  +1.50000000000e+001
  +1.55000000000e+001
  +1.60000000000e+001
  +1.65000000000e+001
  +1.70000000000e+001
  +1.75000000000e+001
  +1.80000000000e+001
  +1.85000000000e+001
  +1.90000000000e+001
  +1.95000000000e+001
  +2.00000000000e+001
  +2.05000000000e+001
  +2.10000000000e+001
  +2.15000000000e+001
  +2.20000000000e+001
  +2.25000000000e+001
  +2.30000000000e+001
  +2.35000000000e+001
  +2.40000000000e+001
  +2.45000000000e+001
  +2.50000000000e+001
  +2.55000000000e+001
  +2.60000000000e+001
  +2.65000000000e+001
  +2.70000000000e+001
  +2.75000000000e+001
  +2.80000000000e+001
  +2.85000000000e+001
  +2.90000000000e+001
  +2.95000000000e+001
  +3.00000000000e+001
  +3.05000000000e+001
  +3.10000000000e+001
  +3.15000000000e+001
  +3.20000000000e+001
  +3.25000000000e+001
  +3.30000000000e+001
  +3.35000000000e+001
  +3.40000000000e+001
  +3.45000000000e+001
  +3.50000000000e+001
  +3.55000000000e+001
  +3.60000000000e+001
  +3.65000000000e+001
  +3.70000000000e+001
  +3.75000000000e+001
  +3.80000000000e+001
  +3.85000000000e+001
  +3.90000000000e+001
  +3.95000000000e+001
  +4.00000000000e+001
  +4.05000000000e+001
  +4.10000000000e+001
  +4.15000000000e+001
  +4.20000000000e+001
  +4.25000000000e+001
  +4.30000000000e+001
  +4.35000000000e+001
  +4.40000000000e+001
  +4.45000000000e+001
  +4.50000000000e+001
  +4.55000000000e+001
  +4.60000000000e+001
  +4.65000000000e+001
  +4.70000000000e+001
  +4.75000000000e+001
  +4.80000000000e+001
  +4.85000000000e+001
  +4.90000000000e+001
  +4.95000000000e+001
  +5.00000000000e+001
</dep>
<dep z a>
  +5.00000000000e+001
  +4.95000000000e+001
  +4.90000000000e+001
  +4.85000000000e+001
  +4.80000000000e+001
  +4.75000000000e+001
  +4.70000000000e+001
  +4.65000000000e+001
  +4.60000000000e+001
  +4.55000000000e+001
  +4.50000000000e+001
  +4.45000000000e+001
  +4.40000000000e+001
  +4.35000000000e+001
  +4.30000000000e+001
  +4.25000000000e+001
  +4.20000000000e+001
  +4.15000000000e+001
  +4.10000000000e+001
  +4.05000000000e+001
  +4.00000000000e+001
  +3.95000000000e+001
  +3.90000000000e+001
  +3.85000000000e+001
  +3.80000000000e+001
  +3.75000000000e+001
  +3.70000000000e+001
  +3.65000000000e+001
  +3.60000000000e+001
  +3.55000000000e+001
  +3.50000000000e+001
  +3.45000000000e+001
  +3.40000000000e+001
  +3.35000000000e+001
  +3.30000000000e+001
  +3.25000000000e+001
  +3.20000000000e+001
  +3.15000000000e+001
  +3.10000000000e+001
  +3.05000000000e+001
  +3.00000000000e+001
  +2.95000000000e+001
  +2.90000000000e+001
  +2.85000000000e+001
  +2.80000000000e+001
  +2.75000000000e+001
  +2.70000000000e+001
  +2.65000000000e+001
  +2.60000000000e+001
  +2.55000000000e+001
  +2.50000000000e+001
  +2.45000000000e+001
  +2.40000000000e+001
  +2.35000000000e+001
  +2.30000000000e+001
  +2.25000000000e+001
  +2.20000000000e+001
  +2.15000000000e+001
  +2.10000000000e+001
  +2.05000000000e+001
  +2.00000000000e+001
  +1.95000000000e+001
  +1.90000000000e+001
  +1.85000000000e+001
  +1.80000000000e+001
  +1.75000000000e+001
  +1.70000000000e+001
  +1.65000000000e+001
  +1.60000000000e+001
  +1.55000000000e+001
  +1.50000000000e+001
  +1.45000000000e+001
  +1.40000000000e+001
  +1.35000000000e+001
  +1.30000000000e+001
  +1.25000000000e+001
  +1.20000000000e+001
  +1.15000000000e+001
  +1.10000000000e+001
  +1.05000000000e+001
  +1.00000000000e+001
  +9.50000000000e+000
  +9.00000000000e+000
  +8.50000000000e+000
  +8.00000000000e+000
  +7.50000000000e+000
  +7.00000000000e+000
  +6.50000000000e+000
  +6.00000000000e+000
  +5.50000000000e+000
  +5.00000000000e+000
  +4.50000000000e+000
  +4.00000000000e+000
  +3.50000000000e+000
  +3.00000000000e+000
  +2.50000000000e+000
  +2.00000000000e+000
  +1.50000000000e+000
  +1.00000000000e+000
  +5.00000000000e-001
  +0.00000000000e+000
</dep>
<dep V1.I a>
  -1.33333333333e-002
  -1.33333333333e-002
  -1.33333333333e-002
  -1.33333333333e-002
  -1.33333333333e-002
  -1.33333333333e-002
  -1.33333333333e-002
  -1.33333333333e-002
  -1.33333333333e-002
  -1.33333333333e-002
  -1.33333333333e-002
  -1.33333333333e-002
  -1.33333333333e-002
  -1.33333333333e-002
  -1.33333333333e-002
  -1.33333333333e-002
  -1.33333333333e-002
  -1.33333333333e-002
  -1.33333333333e-002
  -1.33333333333e-002
  -1.33333333333e-002
  -1.33333333333e-002
  -1.33333333333e-002
  -1.33333333333e-002
  -1.33333333333e-002
  -1.33333333333e-002
  -1.33333333333e-002
  -1.33333333333e-002
  -1.33333333333e-002
  -1.33333333333e-002
  -1.33333333333e-002
  -1.33333333333e-002
  -1.33333333333e-002
  -1.33333333333e-002
  -1.33333333333e-002
  -1.33333333333e-002
  -1.33333333333e-002
  -1.33333333333e-002
  -1.33333333333e-002
  -1.33333333333e-002
  -1.33333333333e-002
  -1.33333333333e-002
  -1.33333333333e-002
  -1.33333333333e-002
  -1.33333333333e-002
  -1.33333333333e-002
  -1.33333333333e-002
  -1.33333333333e-002
  -1.33333333333e-002
  -1.33333333333e-002
  -1.33333333333e-002
  -1.33333333333e-002
  -1.33333333333e-002
  -1.33333333333e-002
  -1.33333333333e-002
  -1.33333333333e-002
  -1.33333333333e-002
  -1.33333333333e-002
  -1.33333333333e-002
  -1.33333333333e-002
  -1.33333333333e-002
  -1.33333333333e-002
  -1.33333333333e-002
  -1.33333333333e-002
  -1.33333333333e-002
  -1.33333333333e-002
  -1.33333333333e-002
  -1.33333333333e-002
  -1.33333333333e-002
  -1.33333333333e-002
  -1.33333333333e-002
  -1.33333333333e-002
  -1.33333333333e-002
  -1.33333333333e-002
  -1.33333333333e-002
  -1.33333333333e-002
  -1.33333333333e-002
  -1.33333333333e-002
  -1.33333333333e-002
  -1.33333333333e-002
  -1.33333333333e-002
  -1.33333333333e-002
  -1.33333333333e-002
  -1.33333333333e-002
  -1.33333333333e-002
  -1.33333333333e-002
  -1.33333333333e-002
  -1.33333333333e-002
  -1.33333333333e-002
  -1.33333333333e-002
  -1.33333333333e-002
  -1.33333333333e-002
  -1.33333333333e-002
  -1.33333333333e-002
  -1.33333333333e-002
  -1.33333333333e-002
  -1.33333333333e-002
  -1.33333333333e-002
  -1.33333333333e-002
  -1.33333333333e-002
  -1.33333333333e-002
</dep>
<dep V2.I a>
  -1.33333333333e-002
  -1.33333333333e-002
  -1.33333333333e-002
  -1.33333333333e-002
  -1.33333333333e-002
  -1.33333333333e-002
  -1.33333333333e-002
  -1.33333333333e-002
  -1.33333333333e-002
  -1.33333333333e-002
  -1.33333333333e-002
  -1.33333333333e-002
  -1.33333333333e-002
  -1.33333333333e-002
  -1.33333333333e-002
  -1.33333333333e-002
  -1.33333333333e-002
  -1.33333333333e-002
  -1.33333333333e-002
  -1.33333333333e-002
  -1.33333333333e-002
  -1.33333333333e-002
  -1.33333333333e-002
  -1.33333333333e-002
  -1.33333333333e-002
  -1.33333333333e-002
  -1.33333333333e-002
  -1.33333333333e-002
  -1.33333333333e-002
  -1.33333333333e-002
  -1.33333333333e-002
  -1.33333333333e-002
  -1.33333333333e-002
  -1.33333333333e-002
  -1.33333333333e-002
  -1.33333333333e-002
  -1.33333333333e-002
  -1.33333333333e-002
  -1.33333333333e-002
  -1.33333333333e-002
  -1.33333333333e-002
  -1.33333333333e-002
  -1.33333333333e-002
  -1.33333333333e-002
  -1.33333333333e-002
  -1.33333333333e-002
  -1.33333333333e-002
  -1.33333333333e-002
  -1.33333333333e-002
  -1.33333333333e-002
  -1.33333333333e-002
  -1.33333333333e-002
  -1.33333333333e-002
  -1.33333333333e-002
  -1.33333333333e-002
  -1.33333333333e-002
  -1.33333333333e-002
  -1.33333333333e-002
  -1.33333333333e-002
  -1.33333333333e-002
  -1.33333333333e-002
  -1.33333333333e-002
  -1.33333333333e-002
  -1.33333333333e-002
  -1.33333333333e-002
  -1.33333333333e-002
  -1.33333333333e-002
  -1.33333333333e-002
  -1.33333333333e-002
  -1.33333333333e-002
  -1.33333333333e-002
  -1.33333333333e-002
  -1.33333333333e-002
  -1.33333333333e-002
  -1.33333333333e-002
  -1.33333333333e-002
  -1.33333333333e-002
  -1.33333333333e-002
  -1.33333333333e-002
  -1.33333333333e-002
  -1.33333333333e-002
  -1.33333333333e-002
  -1.33333333333e-002
  -1.33333333333e-002
  -1.33333333333e-002
  -1.33333333333e-002
  -1.33333333333e-002
  -1.33333333333e-002
  -1.33333333333e-002
  -1.33333333333e-002
  -1.33333333333e-002
  -1.33333333333e-002
  -1.33333333333e-002
  -1.33333333333e-002
  -1.33333333333e-002
  -1.33333333333e-002
  -1.33333333333e-002
  -1.33333333333e-002
  -1.33333333333e-002
  -1.33333333333e-002
  -1.33333333333e-002
</dep>
<dep _net3.V a>
  -3.33333333333e-001
  -3.33333333333e-001
  -3.33333333333e-001
  -3.33333333333e-001
  -3.33333333333e-001
  -3.33333333333e-001
  -3.33333333333e-001
  -3.33333333333e-001
  -3.33333333333e-001
  -3.33333333333e-001
  -3.33333333333e-001
  -3.33333333333e-001
  -3.33333333333e-001
  -3.33333333333e-001
  -3.33333333333e-001
  -3.33333333333e-001
  -3.33333333333e-001
  -3.33333333333e-001
  -3.33333333333e-001
  -3.33333333333e-001
  -3.33333333333e-001
  -3.33333333333e-001
  -3.33333333333e-001
  -3.33333333333e-001
  -3.33333333333e-001
  -3.33333333333e-001
  -3.33333333333e-001
  -3.33333333333e-001
  -3.33333333333e-001
  -3.33333333333e-001
  -3.33333333333e-001
  -3.33333333333e-001
  -3.33333333333e-001
  -3.33333333333e-001
  -3.33333333333e-001
  -3.33333333333e-001
  -3.33333333333e-001
  -3.33333333333e-001
  -3.33333333333e-001
  -3.33333333333e-001
  -3.33333333333e-001
  -3.33333333333e-001
  -3.33333333333e-001
  -3.33333333333e-001
  -3.33333333333e-001
  -3.33333333333e-001
  -3.33333333333e-001
  -3.33333333333e-001
  -3.33333333333e-001
  -3.33333333333e-001
  -3.33333333333e-001
  -3.33333333333e-001
  -3.33333333333e-001
  -3.33333333333e-001
  -3.33333333333e-001
  -3.33333333333e-001
  -3.33333333333e-001
  -3.33333333333e-001
  -3.33333333333e-001
  -3.33333333333e-001
  -3.33333333333e-001
  -3.33333333333e-001
  -3.33333333333e-001
  -3.33333333333e-001
  -3.33333333333e-001
  -3.33333333333e-001
  -3.33333333333e-001
  -3.33333333333e-001
  -3.33333333333e-001
  -3.33333333333e-001
  -3.33333333333e-001
  -3.33333333333e-001
  -3.33333333333e-001
  -3.33333333333e-001
  -3.33333333333e-001
  -3.33333333333e-001
  -3.33333333333e-001
  -3.33333333333e-001
  -3.33333333333e-001
  -3.33333333333e-001
  -3.33333333333e-001
  -3.33333333333e-001
  -3.33333333333e-001
  -3.33333333333e-001
  -3.33333333333e-001
  -3.33333333333e-001
  -3.33333333333e-001
  -3.33333333333e-001
  -3.33333333333e-001
  -3.33333333333e-001
  -3.33333333333e-001
  -3.33333333333e-001
  -3.33333333333e-001
  -3.33333333333e-001
  -3.33333333333e-001
  -3.33333333333e-001
  -3.33333333333e-001
  -3.33333333333e-001
  -3.33333333333e-001
  -3.33333333333e-001
  -3.33333333333e-001
</dep>
<dep ua.V a>
  +3.33333333333e-001
  +3.26666666667e-001
  +3.20000000000e-001
  +3.13333333333e-001
  +3.06666666667e-001
  +3.00000000000e-001
  +2.93333333333e-001
  +2.86666666667e-001
  +2.80000000000e-001
  +2.73333333333e-001
  +2.66666666667e-001
  +2.60000000000e-001
  +2.53333333333e-001
  +2.46666666667e-001
  +2.40000000000e-001
  +2.33333333333e-001
  +2.26666666667e-001
  +2.20000000000e-001
  +2.13333333333e-001
  +2.06666666667e-001
  +2.00000000000e-001
  +1.93333333333e-001
  +1.86666666667e-001
  +1.80000000000e-001
  +1.73333333333e-001
  +1.66666666667e-001
  +1.60000000000e-001
  +1.53333333333e-001
  +1.46666666667e-001
  +1.40000000000e-001
  +1.33333333333e-001
  +1.26666666667e-001
  +1.20000000000e-001
  +1.13333333333e-001
  +1.06666666667e-001
  +1.00000000000e-001
  +9.33333333333e-002
  +8.66666666667e-002
  +8.00000000000e-002
  +7.33333333333e-002
  +6.66666666667e-002
  +6.00000000000e-002
  +5.33333333333e-002
  +4.66666666667e-002
  +4.00000000000e-002
  +3.33333333333e-002
  +2.66666666667e-002
  +2.00000000000e-002
  +1.33333333333e-002
  +6.66666666667e-003
  +2.77555756156e-017
  -6.66666666667e-003
  -1.33333333333e-002
  -2.00000000000e-002
  -2.66666666667e-002
  -3.33333333333e-002
  -4.00000000000e-002
  -4.66666666667e-002
  -5.33333333333e-002
  -6.00000000000e-002
  -6.66666666667e-002
  -7.33333333333e-002
  -8.00000000000e-002
  -8.66666666667e-002
  -9.33333333333e-002
  -1.00000000000e-001
  -1.06666666667e-001
  -1.13333333333e-001
  -1.20000000000e-001
  -1.26666666667e-001
  -1.33333333333e-001
  -1.40000000000e-001
  -1.46666666667e-001
  -1.53333333333e-001
  -1.60000000000e-001
  -1.66666666667e-001
  -1.73333333333e-001
  -1.80000000000e-001
  -1.86666666667e-001
  -1.93333333333e-001
  -2.00000000000e-001
  -2.06666666667e-001
  -2.13333333333e-001
  -2.20000000000e-001
  -2.26666666667e-001
  -2.33333333333e-001
  -2.40000000000e-001
  -2.46666666667e-001
  -2.53333333333e-001
  -2.60000000000e-001
  -2.66666666667e-001
  -2.73333333333e-001
  -2.80000000000e-001
  -2.86666666667e-001
  -2.93333333333e-001
  -3.00000000000e-001
  -3.06666666667e-001
  -3.13333333333e-001
  -3.20000000000e-001
  -3.26666666667e-001
  -3.33333333333e-001
</dep>
<dep _net0.V a>
  +3.33333333333e-001
  +3.33333333333e-001
  +3.33333333333e-001
  +3.33333333333e-001
  +3.33333333333e-001
  +3.33333333333e-001
  +3.33333333333e-001
  +3.33333333333e-001
  +3.33333333333e-001
  +3.33333333333e-001
  +3.33333333333e-001
  +3.33333333333e-001
  +3.33333333333e-001
  +3.33333333333e-001
  +3.33333333333e-001
  +3.33333333333e-001
  +3.33333333333e-001
  +3.33333333333e-001
  +3.33333333333e-001
  +3.33333333333e-001
  +3.33333333333e-001
  +3.33333333333e-001
  +3.33333333333e-001
  +3.33333333333e-001
  +3.33333333333e-001
  +3.33333333333e-001
  +3.33333333333e-001
  +3.33333333333e-001
  +3.33333333333e-001
  +3.33333333333e-001
  +3.33333333333e-001
  +3.33333333333e-001
  +3.33333333333e-001
  +3.33333333333e-001
  +3.33333333333e-001
  +3.33333333333e-001
  +3.33333333333e-001
  +3.33333333333e-001
  +3.33333333333e-001
  +3.33333333333e-001
  +3.33333333333e-001
  +3.33333333333e-001
  +3.33333333333e-001
  +3.33333333333e-001
  +3.33333333333e-001
  +3.33333333333e-001
  +3.33333333333e-001
  +3.33333333333e-001
  +3.33333333333e-001
  +3.33333333333e-001
  +3.33333333333e-001
  +3.33333333333e-001
  +3.33333333333e-001
  +3.33333333333e-001
  +3.33333333333e-001
  +3.33333333333e-001
  +3.33333333333e-001
  +3.33333333333e-001
  +3.33333333333e-001
  +3.33333333333e-001
  +3.33333333333e-001
  +3.33333333333e-001
  +3.33333333333e-001
  +3.33333333333e-001
  +3.33333333333e-001
  +3.33333333333e-001
  +3.33333333333e-001
  +3.33333333333e-001
  +3.33333333333e-001
  +3.33333333333e-001
  +3.33333333333e-001
  +3.33333333333e-001
  +3.33333333333e-001
  +3.33333333333e-001
  +3.33333333333e-001
  +3.33333333333e-001
  +3.33333333333e-001
  +3.33333333333e-001
  +3.33333333333e-001
  +3.33333333333e-001
  +3.33333333333e-001
  +3.33333333333e-001
  +3.33333333333e-001
  +3.33333333333e-001
  +3.33333333333e-001
  +3.33333333333e-001
  +3.33333333333e-001
  +3.33333333333e-001
  +3.33333333333e-001
  +3.33333333333e-001
  +3.33333333333e-001
  +3.33333333333e-001
  +3.33333333333e-001
  +3.33333333333e-001
  +3.33333333333e-001
  +3.33333333333e-001
  +3.33333333333e-001
  +3.33333333333e-001
  +3.33333333333e-001
  +3.33333333333e-001
  +3.33333333333e-001
</dep>
<dep _net2.V a>
  -1.00000000000e+000
  -1.00000000000e+000
  -1.00000000000e+000
  -1.00000000000e+000
  -1.00000000000e+000
  -1.00000000000e+000
  -1.00000000000e+000
  -1.00000000000e+000
  -1.00000000000e+000
  -1.00000000000e+000
  -1.00000000000e+000
  -1.00000000000e+000
  -1.00000000000e+000
  -1.00000000000e+000
  -1.00000000000e+000
  -1.00000000000e+000
  -1.00000000000e+000
  -1.00000000000e+000
  -1.00000000000e+000
  -1.00000000000e+000
  -1.00000000000e+000
  -1.00000000000e+000
  -1.00000000000e+000
  -1.00000000000e+000
  -1.00000000000e+000
  -1.00000000000e+000
  -1.00000000000e+000
  -1.00000000000e+000
  -1.00000000000e+000
  -1.00000000000e+000
  -1.00000000000e+000
  -1.00000000000e+000
  -1.00000000000e+000
  -1.00000000000e+000
  -1.00000000000e+000
  -1.00000000000e+000
  -1.00000000000e+000
  -1.00000000000e+000
  -1.00000000000e+000
  -1.00000000000e+000
  -1.00000000000e+000
  -1.00000000000e+000
  -1.00000000000e+000
  -1.00000000000e+000
  -1.00000000000e+000
  -1.00000000000e+000
  -1.00000000000e+000
  -1.00000000000e+000
  -1.00000000000e+000
  -1.00000000000e+000
  -1.00000000000e+000
  -1.00000000000e+000
  -1.00000000000e+000
  -1.00000000000e+000
  -1.00000000000e+000
  -1.00000000000e+000
  -1.00000000000e+000
  -1.00000000000e+000
  -1.00000000000e+000
  -1.00000000000e+000
  -1.00000000000e+000
  -1.00000000000e+000
  -1.00000000000e+000
  -1.00000000000e+000
  -1.00000000000e+000
  -1.00000000000e+000
  -1.00000000000e+000
  -1.00000000000e+000
  -1.00000000000e+000
  -1.00000000000e+000
  -1.00000000000e+000
  -1.00000000000e+000
  -1.00000000000e+000
  -1.00000000000e+000
  -1.00000000000e+000
  -1.00000000000e+000
  -1.00000000000e+000
  -1.00000000000e+000
  -1.00000000000e+000
  -1.00000000000e+000
  -1.00000000000e+000
  -1.00000000000e+000
  -1.00000000000e+000
  -1.00000000000e+000
  -1.00000000000e+000
  -1.00000000000e+000
  -1.00000000000e+000
  -1.00000000000e+000
  -1.00000000000e+000
  -1.00000000000e+000
  -1.00000000000e+000
