<Qucs Dataset 0.0.17>
<indep y 1>
  +1.00000000000e+000
</indep>
<indep acfrequency 100>
  +1.00000000000e+000
  +1.01010102000e+008
  +2.02020203000e+008
  +3.03030304000e+008
  +4.04040405000e+008
  +5.05050506000e+008
  +6.06060607000e+008
  +7.07070708000e+008
  +8.08080809000e+008
  +9.09090910000e+008
  +1.01010101100e+009
  +1.11111111200e+009
  +1.21212121300e+009
  +1.31313131400e+009
  +1.41414141500e+009
  +1.51515151600e+009
  +1.61616161700e+009
  +1.71717171800e+009
  +1.81818181900e+009
  +1.91919192000e+009
  +2.02020202100e+009
  +2.12121212200e+009
  +2.22222222300e+009
  +2.32323232400e+009
  +2.42424242500e+009
  +2.52525252600e+009
  +2.62626262700e+009
  +2.72727272800e+009
  +2.82828282900e+009
  +2.92929293000e+009
  +3.03030303100e+009
  +3.13131313200e+009
  +3.23232323300e+009
  +3.33333333400e+009
  +3.43434343500e+009
  +3.53535353600e+009
  +3.63636363700e+009
  +3.73737373800e+009
  +3.83838383900e+009
  +3.93939394000e+009
  +4.04040404100e+009
  +4.14141414200e+009
  +4.24242424300e+009
  +4.34343434400e+009
  +4.44444444500e+009
  +4.54545454600e+009
  +4.64646464700e+009
  +4.74747474800e+009
  +4.84848484900e+009
  +4.94949495000e+009
  +5.05050505100e+009
  +5.15151515200e+009
  +5.25252525300e+009
  +5.35353535400e+009
  +5.45454545500e+009
  +5.55555555600e+009
  +5.65656565700e+009
  +5.75757575800e+009
  +5.85858585900e+009
  +5.95959596000e+009
  +6.06060606100e+009
  +6.16161616200e+009
  +6.26262626300e+009
  +6.36363636400e+009
  +6.46464646500e+009
  +6.56565656600e+009
  +6.66666666700e+009
  +6.76767676800e+009
  +6.86868686900e+009
  +6.96969697000e+009
  +7.07070707100e+009
  +7.17171717200e+009
  +7.27272727300e+009
  +7.37373737400e+009
  +7.47474747500e+009
  +7.57575757600e+009
  +7.67676767700e+009
  +7.77777777800e+009
  +7.87878787900e+009
  +7.97979798000e+009
  +8.08080808100e+009
  +8.18181818200e+009
  +8.28282828300e+009
  +8.38383838400e+009
  +8.48484848500e+009
  +8.58585858600e+009
  +8.68686868700e+009
  +8.78787878800e+009
  +8.88888888900e+009
  +8.98989899000e+009
  +9.09090909100e+009
  +9.19191919200e+009
  +9.29292929300e+009
  +9.39393939400e+009
  +9.49494949500e+009
  +9.59595959600e+009
  +9.69696969700e+009
  +9.79797979800e+009
  +9.89898989900e+009
  +1.00000000000e+010
</indep>
<dep Pr1.v acfrequency>
  +9.86960440109e-020+j3.14159265359e-010
  +1.00598672618e-003+j3.17013362004e-002
  +4.01183929382e-003+j6.32119010891e-002
  +8.98159747449e-003+j9.43447316033e-002
  +1.58565157186e-002+j1.24920321117e-001
  +2.45567767707e-002+j1.54769963124e-001
  +3.49837596418e-002+j1.83738662788e-001
  +4.70227444614e-002+j2.11687519624e-001
  +6.05459206974e-002+j2.38495518164e-001
  +7.54155593616e-002+j2.64060699022e-001
  +9.14872136568e-002+j2.88300716950e-001
  +1.08612824720e-001+j3.11152822623e-001
  +1.26643627674e-001+j3.32573329122e-001
  +1.45432775811e-001+j3.52536641401e-001
  +1.64837625061e-001+j3.71033937026e-001
  +1.84721644877e-001+j3.88071589776e-001
  +2.04955943624e-001+j4.03669425145e-001
  +2.25420415329e-001+j4.17858889676e-001
  +2.46004529584e-001+j4.30681205775e-001
  +2.66607797293e-001+j4.42185571583e-001
  +2.87139951964e-001+j4.52427452693e-001
  +3.07520889843e-001+j4.61467000069e-001
  +3.27680412873e-001+j4.69367617005e-001
  +3.47557816948e-001+j4.76194687944e-001
  +3.67101364759e-001+j4.82014473591e-001
  +3.86267678413e-001+j4.86893170035e-001
  +4.05021082228e-001+j4.90896124632e-001
  +4.23332921258e-001+j4.94087197807e-001
  +4.41180876346e-001+j4.96528257698e-001
  +4.58548292058e-001+j4.98278793356e-001
  +4.75423529889e-001+j4.99395631856e-001
  +4.91799355659e-001+j4.99932744909e-001
  +5.07672367096e-001+j4.99941131318e-001
  +5.23042465183e-001+j4.99468762585e-001
  +5.37912370897e-001+j4.98560580204e-001
  +5.52287187478e-001+j4.97258534392e-001
  +5.66174007194e-001+j4.95601655336e-001
  +5.79581560776e-001+j4.93626149211e-001
  +5.92519907097e-001+j4.91365512415e-001
  +6.05000160320e-001+j4.88850658517e-001
  +6.17034251571e-001+j4.86110053341e-001
  +6.28634722069e-001+j4.83169854480e-001
  +6.39814544753e-001+j4.80054052244e-001
  +6.50586971457e-001+j4.76784609680e-001
  +6.60965402921e-001+j4.73381599835e-001
  +6.70963279008e-001+j4.69863338888e-001
  +6.80593986780e-001+j4.66246514130e-001
  +6.89870784218e-001+j4.62546306115e-001
  +6.98806737612e-001+j4.58776504499e-001
  +7.07414670830e-001+j4.54949617347e-001
  +7.15707124855e-001+j4.51076973794e-001
  +7.23696326176e-001+j4.47168820084e-001
  +7.31394162750e-001+j4.43234409140e-001
  +7.38812166435e-001+j4.39282083817e-001
  +7.45961500903e-001+j4.35319354122e-001
  +7.52852954179e-001+j4.31352968650e-001
  +7.59496935059e-001+j4.27388980549e-001
  +7.65903472758e-001+j4.23432808336e-001
  +7.72082219226e-001+j4.19489291855e-001
  +7.78042453640e-001+j4.15562743727e-001
  +7.83793088669e-001+j4.11656996569e-001
  +7.89342678142e-001+j4.07775446301e-001
  +7.94699425822e-001+j4.03921091824e-001
  +7.99871195020e-001+j4.00096571339e-001
  +8.04865518837e-001+j3.96304195568e-001
  +8.09689610839e-001+j3.92545978120e-001
  +8.14350376023e-001+j3.88823663239e-001
  +8.18854421926e-001+j3.85138751125e-001
  +8.23208069790e-001+j3.81492521057e-001
  +8.27417365674e-001+j3.77886052475e-001
  +8.31488091454e-001+j3.74320244208e-001
  +8.35425775655e-001+j3.70795831997e-001
  +8.39235704050e-001+j3.67313404463e-001
  +8.42922930011e-001+j3.63873417651e-001
  +8.46492284574e-001+j3.60476208273e-001
  +8.49948386194e-001+j3.57122005763e-001
  +8.53295650181e-001+j3.53810943249e-001
  +8.56538297810e-001+j3.50543067532e-001
  +8.59680365088e-001+j3.47318348162e-001
  +8.62725711189e-001+j3.44136685697e-001
  +8.65678026554e-001+j3.40997919196e-001
  +8.68540840648e-001+j3.37901833044e-001
  +8.71317529405e-001+j3.34848163138e-001
  +8.74011322333e-001+j3.31836602512e-001
  +8.76625309324e-001+j3.28866806438e-001
  +8.79162447144e-001+j3.25938397057e-001
  +8.81625565637e-001+j3.23050967577e-001
  +8.84017373641e-001+j3.20204086079e-001
  +8.86340464629e-001+j3.17397298964e-001
  +8.88597322084e-001+j3.14630134077e-001
  +8.90790324620e-001+j3.11902103525e-001
  +8.92921750863e-001+j3.09212706238e-001
  +8.94993784089e-001+j3.06561430273e-001
  +8.97008516653e-001+j3.03947754894e-001
  +8.98967954187e-001+j3.01371152454e-001
  +9.00874019611e-001+j2.98831090085e-001
  +9.02728556933e-001+j2.96327031218e-001
  +9.04533334882e-001+j2.93858436955e-001
  +9.06290050344e-001+j2.91424767292e-001
  +9.08000331650e-001+j2.89025482222e-001
</dep>
<dep V1.i acfrequency>
  -1.97392088022e-021-j6.28318530718e-012
  -2.01197345237e-005-j6.34026724008e-004
  -8.02367858765e-005-j1.26423802178e-003
  -1.79631949490e-004-j1.88689463207e-003
  -3.17130314373e-004-j2.49840642233e-003
  -4.91135535414e-004-j3.09539926248e-003
  -6.99675192837e-004-j3.67477325576e-003
  -9.40454889228e-004-j4.23375039249e-003
  -1.21091841395e-003-j4.76991036328e-003
  -1.50831118723e-003-j5.28121398043e-003
  -1.82974427314e-003-j5.76601433901e-003
  -2.17225649439e-003-j6.22305645246e-003
  -2.53287255347e-003-j6.65146658244e-003
  -2.90865551621e-003-j7.05073282803e-003
  -3.29675250122e-003-j7.42067874052e-003
  -3.69443289754e-003-j7.76143179551e-003
  -4.09911887248e-003-j8.07338850291e-003
  -4.50840830657e-003-j8.35717779353e-003
  -4.92009059168e-003-j8.61362411551e-003
  -5.33215594587e-003-j8.84371143165e-003
  -5.74279903929e-003-j9.04854905386e-003
  -6.15041779686e-003-j9.22934000139e-003
  -6.55360825747e-003-j9.38735234009e-003
  -6.95115633895e-003-j9.52389375888e-003
  -7.34202729518e-003-j9.64028947182e-003
  -7.72535356827e-003-j9.73786340070e-003
  -8.10042164456e-003-j9.81792249264e-003
  -8.46665842515e-003-j9.88174395615e-003
  -8.82361752691e-003-j9.93056515396e-003
  -9.17096584116e-003-j9.96557586713e-003
  -9.50847059779e-003-j9.98791263712e-003
  -9.83598711318e-003-j9.99865489818e-003
  -1.01534473419e-002-j9.99882262635e-003
  -1.04608493037e-002-j9.98937525170e-003
  -1.07582474179e-002-j9.97121160407e-003
  -1.10457437496e-002-j9.94517068784e-003
  -1.13234801439e-002-j9.91203310672e-003
  -1.15916312155e-002-j9.87252298421e-003
  -1.18503981419e-002-j9.82731024830e-003
  -1.21000032064e-002-j9.77701317034e-003
  -1.23406850314e-002-j9.72220106682e-003
  -1.25726944414e-002-j9.66339708960e-003
  -1.27962908951e-002-j9.60108104487e-003
  -1.30117394291e-002-j9.53569219359e-003
  -1.32193080584e-002-j9.46763199670e-003
  -1.34192655802e-002-j9.39726677776e-003
  -1.36118797356e-002-j9.32493028261e-003
  -1.37974156844e-002-j9.25092612229e-003
  -1.39761347522e-002-j9.17553008997e-003
  -1.41482934166e-002-j9.09899234695e-003
  -1.43141424971e-002-j9.02153947587e-003
  -1.44739265235e-002-j8.94337640168e-003
  -1.46278832550e-002-j8.86468818279e-003
  -1.47762433287e-002-j8.78564167634e-003
  -1.49192300181e-002-j8.70638708244e-003
  -1.50570590836e-002-j8.62705937299e-003
  -1.51899387012e-002-j8.54777961099e-003
  -1.53180694552e-002-j8.46865616671e-003
  -1.54416443845e-002-j8.38978583710e-003
  -1.55608490728e-002-j8.31125487454e-003
  -1.56758617734e-002-j8.23313993137e-003
  -1.57868535628e-002-j8.15550892601e-003
  -1.58939885164e-002-j8.07842183648e-003
  -1.59974239004e-002-j8.00193142678e-003
  -1.60973103767e-002-j7.92608391135e-003
  -1.61937922168e-002-j7.85091956241e-003
  -1.62870075205e-002-j7.77647326478e-003
  -1.63770884385e-002-j7.70277502250e-003
  -1.64641613958e-002-j7.62985042114e-003
  -1.65483473135e-002-j7.55772104950e-003
  -1.66297618291e-002-j7.48640488416e-003
  -1.67085155131e-002-j7.41591663994e-003
  -1.67847140810e-002-j7.34626808925e-003
  -1.68584586002e-002-j7.27746835301e-003
  -1.69298456915e-002-j7.20952416545e-003
  -1.69989677239e-002-j7.14244011526e-003
  -1.70659130036e-002-j7.07621886498e-003
  -1.71307659562e-002-j7.01086135063e-003
  -1.71936073018e-002-j6.94636696325e-003
  -1.72545142238e-002-j6.88273371393e-003
  -1.73135605311e-002-j6.81995838391e-003
  -1.73708168130e-002-j6.75803666087e-003
  -1.74263505881e-002-j6.69696326275e-003
  -1.74802264467e-002-j6.63673205023e-003
  -1.75325061865e-002-j6.57733612875e-003
  -1.75832489429e-002-j6.51876794113e-003
  -1.76325113127e-002-j6.46101935153e-003
  -1.76803474728e-002-j6.40408172158e-003
  -1.77268092926e-002-j6.34794597929e-003
  -1.77719464417e-002-j6.29260268153e-003
  -1.78158064924e-002-j6.23804207049e-003
  -1.78584350173e-002-j6.18425412476e-003
  -1.78998756818e-002-j6.13122860546e-003
  -1.79401703331e-002-j6.07895509788e-003
  -1.79793590837e-002-j6.02742304908e-003
  -1.80174803922e-002-j5.97662180169e-003
  -1.80545711387e-002-j5.92654062436e-003
  -1.80906666976e-002-j5.87716873910e-003
  -1.81258010069e-002-j5.82849534585e-003
  -1.81600066330e-002-j5.78050964444e-003
</dep>
<dep op.v acfrequency>
  +9.86960440109e-020+j3.14159265359e-010
  +1.00598672618e-003+j3.17013362004e-002
  +4.01183929382e-003+j6.32119010891e-002
  +8.98159747449e-003+j9.43447316033e-002
  +1.58565157186e-002+j1.24920321117e-001
  +2.45567767707e-002+j1.54769963124e-001
  +3.49837596418e-002+j1.83738662788e-001
  +4.70227444614e-002+j2.11687519624e-001
  +6.05459206974e-002+j2.38495518164e-001
  +7.54155593616e-002+j2.64060699022e-001
  +9.14872136568e-002+j2.88300716950e-001
  +1.08612824720e-001+j3.11152822623e-001
  +1.26643627674e-001+j3.32573329122e-001
  +1.45432775811e-001+j3.52536641401e-001
  +1.64837625061e-001+j3.71033937026e-001
  +1.84721644877e-001+j3.88071589776e-001
  +2.04955943624e-001+j4.03669425145e-001
  +2.25420415329e-001+j4.17858889676e-001
  +2.46004529584e-001+j4.30681205775e-001
  +2.66607797293e-001+j4.42185571583e-001
  +2.87139951964e-001+j4.52427452693e-001
  +3.07520889843e-001+j4.61467000069e-001
  +3.27680412873e-001+j4.69367617005e-001
  +3.47557816948e-001+j4.76194687944e-001
  +3.67101364759e-001+j4.82014473591e-001
  +3.86267678413e-001+j4.86893170035e-001
  +4.05021082228e-001+j4.90896124632e-001
  +4.23332921258e-001+j4.94087197807e-001
  +4.41180876346e-001+j4.96528257698e-001
  +4.58548292058e-001+j4.98278793356e-001
  +4.75423529889e-001+j4.99395631856e-001
  +4.91799355659e-001+j4.99932744909e-001
  +5.07672367096e-001+j4.99941131318e-001
  +5.23042465183e-001+j4.99468762585e-001
  +5.37912370897e-001+j4.98560580204e-001
  +5.52287187478e-001+j4.97258534392e-001
  +5.66174007194e-001+j4.95601655336e-001
  +5.79581560776e-001+j4.93626149211e-001
  +5.92519907097e-001+j4.91365512415e-001
  +6.05000160320e-001+j4.88850658517e-001
  +6.17034251571e-001+j4.86110053341e-001
  +6.28634722069e-001+j4.83169854480e-001
  +6.39814544753e-001+j4.80054052244e-001
  +6.50586971457e-001+j4.76784609680e-001
  +6.60965402921e-001+j4.73381599835e-001
  +6.70963279008e-001+j4.69863338888e-001
  +6.80593986780e-001+j4.66246514130e-001
  +6.89870784218e-001+j4.62546306115e-001
  +6.98806737612e-001+j4.58776504499e-001
  +7.07414670830e-001+j4.54949617347e-001
  +7.15707124855e-001+j4.51076973794e-001
  +7.23696326176e-001+j4.47168820084e-001
  +7.31394162750e-001+j4.43234409140e-001
  +7.38812166435e-001+j4.39282083817e-001
  +7.45961500903e-001+j4.35319354122e-001
  +7.52852954179e-001+j4.31352968650e-001
  +7.59496935059e-001+j4.27388980549e-001
  +7.65903472758e-001+j4.23432808336e-001
  +7.72082219226e-001+j4.19489291855e-001
  +7.78042453640e-001+j4.15562743727e-001
  +7.83793088669e-001+j4.11656996569e-001
  +7.89342678142e-001+j4.07775446301e-001
  +7.94699425822e-001+j4.03921091824e-001
  +7.99871195020e-001+j4.00096571339e-001
  +8.04865518837e-001+j3.96304195568e-001
  +8.09689610839e-001+j3.92545978120e-001
  +8.14350376023e-001+j3.88823663239e-001
  +8.18854421926e-001+j3.85138751125e-001
  +8.23208069790e-001+j3.81492521057e-001
  +8.27417365674e-001+j3.77886052475e-001
  +8.31488091454e-001+j3.74320244208e-001
  +8.35425775655e-001+j3.70795831997e-001
  +8.39235704050e-001+j3.67313404463e-001
  +8.42922930011e-001+j3.63873417651e-001
  +8.46492284574e-001+j3.60476208273e-001
  +8.49948386194e-001+j3.57122005763e-001
  +8.53295650181e-001+j3.53810943249e-001
  +8.56538297810e-001+j3.50543067532e-001
  +8.59680365088e-001+j3.47318348162e-001
  +8.62725711189e-001+j3.44136685697e-001
  +8.65678026554e-001+j3.40997919196e-001
  +8.68540840648e-001+j3.37901833044e-001
  +8.71317529405e-001+j3.34848163138e-001
  +8.74011322333e-001+j3.31836602512e-001
  +8.76625309324e-001+j3.28866806438e-001
  +8.79162447144e-001+j3.25938397057e-001
  +8.81625565637e-001+j3.23050967577e-001
  +8.84017373641e-001+j3.20204086079e-001
  +8.86340464629e-001+j3.17397298964e-001
  +8.88597322084e-001+j3.14630134077e-001
  +8.90790324620e-001+j3.11902103525e-001
  +8.92921750863e-001+j3.09212706238e-001
  +8.94993784089e-001+j3.06561430273e-001
  +8.97008516653e-001+j3.03947754894e-001
  +8.98967954187e-001+j3.01371152454e-001
  +9.00874019611e-001+j2.98831090085e-001
  +9.02728556933e-001+j2.96327031218e-001
  +9.04533334882e-001+j2.93858436955e-001
  +9.06290050344e-001+j2.91424767292e-001
  +9.08000331650e-001+j2.89025482222e-001
</dep>
<dep _net1.v acfrequency>
  +9.86960440109e-020+j3.14159265359e-010
  +1.00598672618e-003+j3.17013362004e-002
  +4.01183929382e-003+j6.32119010891e-002
  +8.98159747449e-003+j9.43447316033e-002
  +1.58565157186e-002+j1.24920321117e-001
  +2.45567767707e-002+j1.54769963124e-001
  +3.49837596418e-002+j1.83738662788e-001
  +4.70227444614e-002+j2.11687519624e-001
  +6.05459206974e-002+j2.38495518164e-001
  +7.54155593616e-002+j2.64060699022e-001
  +9.14872136568e-002+j2.88300716950e-001
  +1.08612824720e-001+j3.11152822623e-001
  +1.26643627674e-001+j3.32573329122e-001
  +1.45432775811e-001+j3.52536641401e-001
  +1.64837625061e-001+j3.71033937026e-001
  +1.84721644877e-001+j3.88071589776e-001
  +2.04955943624e-001+j4.03669425145e-001
  +2.25420415329e-001+j4.17858889676e-001
  +2.46004529584e-001+j4.30681205775e-001
  +2.66607797293e-001+j4.42185571583e-001
  +2.87139951964e-001+j4.52427452693e-001
  +3.07520889843e-001+j4.61467000069e-001
  +3.27680412873e-001+j4.69367617005e-001
  +3.47557816948e-001+j4.76194687944e-001
  +3.67101364759e-001+j4.82014473591e-001
  +3.86267678413e-001+j4.86893170035e-001
  +4.05021082228e-001+j4.90896124632e-001
  +4.23332921258e-001+j4.94087197807e-001
  +4.41180876346e-001+j4.96528257698e-001
  +4.58548292058e-001+j4.98278793356e-001
  +4.75423529889e-001+j4.99395631856e-001
  +4.91799355659e-001+j4.99932744909e-001
  +5.07672367096e-001+j4.99941131318e-001
  +5.23042465183e-001+j4.99468762585e-001
  +5.37912370897e-001+j4.98560580204e-001
  +5.52287187478e-001+j4.97258534392e-001
  +5.66174007194e-001+j4.95601655336e-001
  +5.79581560776e-001+j4.93626149211e-001
  +5.92519907097e-001+j4.91365512415e-001
  +6.05000160320e-001+j4.88850658517e-001
  +6.17034251571e-001+j4.86110053341e-001
  +6.28634722069e-001+j4.83169854480e-001
  +6.39814544753e-001+j4.80054052244e-001
  +6.50586971457e-001+j4.76784609680e-001
  +6.60965402921e-001+j4.73381599835e-001
  +6.70963279008e-001+j4.69863338888e-001
  +6.80593986780e-001+j4.66246514130e-001
  +6.89870784218e-001+j4.62546306115e-001
  +6.98806737612e-001+j4.58776504499e-001
  +7.07414670830e-001+j4.54949617347e-001
  +7.15707124855e-001+j4.51076973794e-001
  +7.23696326176e-001+j4.47168820084e-001
  +7.31394162750e-001+j4.43234409140e-001
  +7.38812166435e-001+j4.39282083817e-001
  +7.45961500903e-001+j4.35319354122e-001
  +7.52852954179e-001+j4.31352968650e-001
  +7.59496935059e-001+j4.27388980549e-001
  +7.65903472758e-001+j4.23432808336e-001
  +7.72082219226e-001+j4.19489291855e-001
  +7.78042453640e-001+j4.15562743727e-001
  +7.83793088669e-001+j4.11656996569e-001
  +7.89342678142e-001+j4.07775446301e-001
  +7.94699425822e-001+j4.03921091824e-001
  +7.99871195020e-001+j4.00096571339e-001
  +8.04865518837e-001+j3.96304195568e-001
  +8.09689610839e-001+j3.92545978120e-001
  +8.14350376023e-001+j3.88823663239e-001
  +8.18854421926e-001+j3.85138751125e-001
  +8.23208069790e-001+j3.81492521057e-001
  +8.27417365674e-001+j3.77886052475e-001
  +8.31488091454e-001+j3.74320244208e-001
  +8.35425775655e-001+j3.70795831997e-001
  +8.39235704050e-001+j3.67313404463e-001
  +8.42922930011e-001+j3.63873417651e-001
  +8.46492284574e-001+j3.60476208273e-001
  +8.49948386194e-001+j3.57122005763e-001
  +8.53295650181e-001+j3.53810943249e-001
  +8.56538297810e-001+j3.50543067532e-001
  +8.59680365088e-001+j3.47318348162e-001
  +8.62725711189e-001+j3.44136685697e-001
  +8.65678026554e-001+j3.40997919196e-001
  +8.68540840648e-001+j3.37901833044e-001
  +8.71317529405e-001+j3.34848163138e-001
  +8.74011322333e-001+j3.31836602512e-001
  +8.76625309324e-001+j3.28866806438e-001
  +8.79162447144e-001+j3.25938397057e-001
  +8.81625565637e-001+j3.23050967577e-001
  +8.84017373641e-001+j3.20204086079e-001
  +8.86340464629e-001+j3.17397298964e-001
  +8.88597322084e-001+j3.14630134077e-001
  +8.90790324620e-001+j3.11902103525e-001
  +8.92921750863e-001+j3.09212706238e-001
  +8.94993784089e-001+j3.06561430273e-001
  +8.97008516653e-001+j3.03947754894e-001
  +8.98967954187e-001+j3.01371152454e-001
  +9.00874019611e-001+j2.98831090085e-001
  +9.02728556933e-001+j2.96327031218e-001
  +9.04533334882e-001+j2.93858436955e-001
  +9.06290050344e-001+j2.91424767292e-001
  +9.08000331650e-001+j2.89025482222e-001
</dep>
<dep _net0.v acfrequency>
  +1.00000000000e+000
  +1.00000000000e+000
  +1.00000000000e+000
  +1.00000000000e+000
  +1.00000000000e+000
  +1.00000000000e+000
  +1.00000000000e+000
  +1.00000000000e+000
  +1.00000000000e+000
  +1.00000000000e+000
  +1.00000000000e+000
  +1.00000000000e+000
  +1.00000000000e+000
  +1.00000000000e+000
  +1.00000000000e+000
  +1.00000000000e+000
  +1.00000000000e+000
  +1.00000000000e+000
  +1.00000000000e+000
  +1.00000000000e+000
  +1.00000000000e+000
  +1.00000000000e+000
  +1.00000000000e+000
  +1.00000000000e+000
  +1.00000000000e+000
  +1.00000000000e+000
  +1.00000000000e+000
  +1.00000000000e+000
  +1.00000000000e+000
  +1.00000000000e+000
  +1.00000000000e+000
  +1.00000000000e+000
  +1.00000000000e+000
  +1.00000000000e+000
