<Qucs Dataset 0.0.17>
<indep y 1>
  +5.00000000000e+004
</indep>
<indep z 1>
  +5.00000000000e+004
</indep>
<indep a 1>
  +5.00000000000e-001
</indep>
<indep w 1>
  +1.00000000000e+005
</indep>
<indep time 101>
  +0.00000000000e+000
  +1.00000000000e-005
  +2.00000000000e-005
  +3.00000000000e-005
  +4.00000000000e-005
  +5.00000000000e-005
  +6.00000000000e-005
  +7.00000000000e-005
  +8.00000000000e-005
  +9.00000000000e-005
  +1.00000000000e-004
  +1.10000000000e-004
  +1.20000000000e-004
  +1.30000000000e-004
  +1.40000000000e-004
  +1.50000000000e-004
  +1.60000000000e-004
  +1.70000000000e-004
  +1.80000000000e-004
  +1.90000000000e-004
  +2.00000000000e-004
  +2.10000000000e-004
  +2.20000000000e-004
  +2.30000000000e-004
  +2.40000000000e-004
  +2.50000000000e-004
  +2.60000000000e-004
  +2.70000000000e-004
  +2.80000000000e-004
  +2.90000000000e-004
  +3.00000000000e-004
  +3.10000000000e-004
  +3.20000000000e-004
  +3.30000000000e-004
  +3.40000000000e-004
  +3.50000000000e-004
  +3.60000000000e-004
  +3.70000000000e-004
  +3.80000000000e-004
  +3.90000000000e-004
  +4.00000000000e-004
  +4.10000000000e-004
  +4.20000000000e-004
  +4.30000000000e-004
  +4.40000000000e-004
  +4.50000000000e-004
  +4.60000000000e-004
  +4.70000000000e-004
  +4.80000000000e-004
  +4.90000000000e-004
  +5.00000000000e-004
  +5.10000000000e-004
  +5.20000000000e-004
  +5.30000000000e-004
  +5.40000000000e-004
  +5.50000000000e-004
  +5.60000000000e-004
  +5.70000000000e-004
  +5.80000000000e-004
  +5.90000000000e-004
  +6.00000000000e-004
  +6.10000000000e-004
  +6.20000000000e-004
  +6.30000000000e-004
  +6.40000000000e-004
  +6.50000000000e-004
  +6.60000000000e-004
  +6.70000000000e-004
  +6.80000000000e-004
  +6.90000000000e-004
  +7.00000000000e-004
  +7.10000000000e-004
  +7.20000000000e-004
  +7.30000000000e-004
  +7.40000000000e-004
  +7.50000000000e-004
  +7.60000000000e-004
  +7.70000000000e-004
  +7.80000000000e-004
  +7.90000000000e-004
  +8.00000000000e-004
  +8.10000000000e-004
  +8.20000000000e-004
  +8.30000000000e-004
  +8.40000000000e-004
  +8.50000000000e-004
  +8.60000000000e-004
  +8.70000000000e-004
  +8.80000000000e-004
  +8.90000000000e-004
  +9.00000000000e-004
  +9.10000000000e-004
  +9.20000000000e-004
  +9.30000000000e-004
  +9.40000000000e-004
  +9.50000000000e-004
  +9.60000000000e-004
  +9.70000000000e-004
  +9.80000000000e-004
  +9.90000000000e-004
  +1.00000000000e-003
</indep>
<dep V3.It time>
  -1.29996750081e-004
  -1.29996750081e-004
  -1.29996750081e-004
  -1.29996750081e-004
  -1.29996750081e-004
  -1.29996750081e-004
  -1.29996750081e-004
  -1.29996750081e-004
  -1.29996750081e-004
  -1.29996750081e-004
  -1.29996750081e-004
  -1.29996750081e-004
  -1.29996750081e-004
  -1.29996750081e-004
  -1.29996750081e-004
  -1.29996750081e-004
  -1.29996750081e-004
  -1.29996750081e-004
  -1.29996750081e-004
  -1.29996750081e-004
  -1.29996750081e-004
  -1.29996750081e-004
  -1.29996750081e-004
  -1.29996750081e-004
  -1.29996750081e-004
  -1.29996750081e-004
  -1.29996750081e-004
  -1.29996750081e-004
  -1.29996750081e-004
  -1.29996750081e-004
  -1.29996750081e-004
  -1.29996750081e-004
  -1.29996750081e-004
  -1.29996750081e-004
  -1.29996750081e-004
  -1.29996750081e-004
  -1.29996750081e-004
  -1.29996750081e-004
  -1.29996750081e-004
  -1.29996750081e-004
  -1.29996750081e-004
  -1.29996750081e-004
  -1.29996750081e-004
  -1.29996750081e-004
  -1.29996750081e-004
  -1.29996750081e-004
  -1.29996750081e-004
  -1.29996750081e-004
  -1.29996750081e-004
  -1.29996750081e-004
  -1.29996750081e-004
  -1.29996750081e-004
  -1.29996750081e-004
  -1.29996750081e-004
  -1.29996750081e-004
  -1.29996750081e-004
  -1.29996750081e-004
  -1.29996750081e-004
  -1.29996750081e-004
  -1.29996750081e-004
  -1.29996750081e-004
  -1.29996750081e-004
  -1.29996750081e-004
  -1.29996750081e-004
  -1.29996750081e-004
  -1.29996750081e-004
  -1.29996750081e-004
  -1.29996750081e-004
  -1.29996750081e-004
  -1.29996750081e-004
  -1.29996750081e-004
  -1.29996750081e-004
  -1.29996750081e-004
  -1.29996750081e-004
  -1.29996750081e-004
  -1.29996750081e-004
  -1.29996750081e-004
  -1.29996750081e-004
  -1.29996750081e-004
  -1.29996750081e-004
  -1.29996750081e-004
  -1.29996750081e-004
  -1.29996750081e-004
  -1.29996750081e-004
  -1.29996750081e-004
  -1.29996750081e-004
  -1.29996750081e-004
  -1.29996750081e-004
  -1.29996750081e-004
  -1.29996750081e-004
  -1.29996750081e-004
  -1.29996750081e-004
  -1.29996750081e-004
  -1.29996750081e-004
  -1.29996750081e-004
  -1.29996750081e-004
  -1.29996750081e-004
  -1.29996750081e-004
  -1.29996750081e-004
  -1.29996750081e-004
  -1.29996750081e-004
</dep>
<dep V2.It time>
  -1.29996750081e-004
  -1.29996750081e-004
  -1.29996750081e-004
  -1.29996750081e-004
  -1.29996750081e-004
  -1.29996750081e-004
  -1.29996750081e-004
  -1.29996750081e-004
  -1.29996750081e-004
  -1.29996750081e-004
  -1.29996750081e-004
  -1.29996750081e-004
  -1.29996750081e-004
  -1.29996750081e-004
  -1.29996750081e-004
  -1.29996750081e-004
  -1.29996750081e-004
  -1.29996750081e-004
  -1.29996750081e-004
  -1.29996750081e-004
  -1.29996750081e-004
  -1.29996750081e-004
  -1.29996750081e-004
  -1.29996750081e-004
  -1.29996750081e-004
  -1.29996750081e-004
  -1.29996750081e-004
  -1.29996750081e-004
  -1.29996750081e-004
  -1.29996750081e-004
  -1.29996750081e-004
  -1.29996750081e-004
  -1.29996750081e-004
  -1.29996750081e-004
  -1.29996750081e-004
  -1.29996750081e-004
  -1.29996750081e-004
  -1.29996750081e-004
  -1.29996750081e-004
  -1.29996750081e-004
  -1.29996750081e-004
  -1.29996750081e-004
  -1.29996750081e-004
  -1.29996750081e-004
  -1.29996750081e-004
  -1.29996750081e-004
  -1.29996750081e-004
  -1.29996750081e-004
  -1.29996750081e-004
  -1.29996750081e-004
  -1.29996750081e-004
  -1.29996750081e-004
  -1.29996750081e-004
  -1.29996750081e-004
  -1.29996750081e-004
  -1.29996750081e-004
  -1.29996750081e-004
  -1.29996750081e-004
  -1.29996750081e-004
  -1.29996750081e-004
  -1.29996750081e-004
  -1.29996750081e-004
  -1.29996750081e-004
  -1.29996750081e-004
  -1.29996750081e-004
  -1.29996750081e-004
  -1.29996750081e-004
  -1.29996750081e-004
  -1.29996750081e-004
  -1.29996750081e-004
  -1.29996750081e-004
  -1.29996750081e-004
  -1.29996750081e-004
  -1.29996750081e-004
  -1.29996750081e-004
  -1.29996750081e-004
  -1.29996750081e-004
  -1.29996750081e-004
  -1.29996750081e-004
  -1.29996750081e-004
  -1.29996750081e-004
  -1.29996750081e-004
  -1.29996750081e-004
  -1.29996750081e-004
  -1.29996750081e-004
  -1.29996750081e-004
  -1.29996750081e-004
  -1.29996750081e-004
  -1.29996750081e-004
  -1.29996750081e-004
  -1.29996750081e-004
  -1.29996750081e-004
  -1.29996750081e-004
  -1.29996750081e-004
  -1.29996750081e-004
  -1.29996750081e-004
  -1.29996750081e-004
  -1.29996750081e-004
  -1.29996750081e-004
  -1.29996750081e-004
  -1.29996750081e-004
</dep>
<dep V1.It time>
  -2.86618081934e-022
  -1.29305405195e-006
  -2.09205841761e-006
  -2.09182059957e-006
  -1.29243145140e-006
  +7.69512331650e-010
  +1.29382345213e-006
  +2.09282775747e-006
  +2.09258985112e-006
  +1.29320065855e-006
  -3.92444951579e-013
  -1.29305441556e-006
  -2.09205870001e-006
  -2.09182078191e-006
  -1.29243155405e-006
  +7.69452628321e-010
  +1.29382339169e-006
  +2.09282759156e-006
  +2.09258958889e-006
  +1.29320027646e-006
  -8.14771263654e-013
  -1.29305483838e-006
  -2.09205912279e-006
  -2.09182120464e-006
  -1.29243197673e-006
  +7.69029993747e-010
  +1.29382296911e-006
  +2.09282716902e-006
  +2.09258916639e-006
  +1.29319985401e-006
  -1.23717346439e-012
  -1.29305526074e-006
  -2.09205954510e-006
  -2.09182162690e-006
  -1.29243239894e-006
  +7.68607823802e-010
  +1.29382254698e-006
  +2.09282674694e-006
  +2.09258874436e-006
  +1.29319943202e-006
  -1.65911127658e-012
  -1.29305568263e-006
  -2.09205996694e-006
  -2.09182204870e-006
  -1.29243282070e-006
  +7.68186117966e-010
  +1.29382212532e-006
  +2.09282632533e-006
  +2.09258832280e-006
  +1.29319901050e-006
  -2.08058521724e-012
  -1.29305610406e-006
  -2.09206038832e-006
  -2.09182247004e-006
  -1.29243324198e-006
  +7.67764875780e-010
  +1.29382170413e-006
  +2.09282590418e-006
  +2.09258790169e-006
  +1.29319858945e-006
  -2.50159578343e-012
  -1.29305652502e-006
  -2.09206080924e-006
  -2.09182289091e-006
  -1.29243366281e-006
  +7.67344096699e-010
  +1.29382128339e-006
  +2.09282548349e-006
  +2.09258748105e-006
  +1.29319816885e-006
  -2.92214349880e-012
  -1.29305694552e-006
  -2.09206122970e-006
  -2.09182331132e-006
  -1.29243408317e-006
  +7.66923780246e-010
  +1.29382086312e-006
  +2.09282506327e-006
  +2.09258706087e-006
  +1.29319774872e-006
  -3.34222886355e-012
  -1.29305736556e-006
  -2.09206164969e-006
  -2.09182373126e-006
  -1.29243450307e-006
  +7.66503925869e-010
  +1.29382044332e-006
  +2.09282464351e-006
  +2.09258664116e-006
  +1.29319732905e-006
  -3.76185238750e-012
  -1.29305778514e-006
  -2.09206206922e-006
  -2.09182415075e-006
  -1.29243492251e-006
  +7.66084533051e-010
  +1.29382002397e-006
  +2.09282422421e-006
  +2.09258622190e-006
  +1.29319690984e-006
  -4.18101457899e-012
</dep>
<dep _net0.Vt time>
  +0.00000000000e+000
  +1.17557050458e-001
  +1.90211303259e-001
  +1.90211303259e-001
  +1.17557050458e-001
  +2.44921270764e-017
  -1.17557050458e-001
  -1.90211303259e-001
  -1.90211303259e-001
  -1.17557050458e-001
  -4.89842541529e-017
  +1.17557050458e-001
  +1.90211303259e-001
  +1.90211303259e-001
  +1.17557050458e-001
  +7.34763812293e-017
  -1.17557050458e-001
  -1.90211303259e-001
  -1.90211303259e-001
  -1.17557050458e-001
  -9.79685083058e-017
  +1.17557050458e-001
  +1.90211303259e-001
  +1.90211303259e-001
  +1.17557050458e-001
  +1.22460635382e-016
  -1.17557050458e-001
  -1.90211303259e-001
  -1.90211303259e-001
  -1.17557050458e-001
  -1.46952762459e-016
  +1.17557050458e-001
  +1.90211303259e-001
  +1.90211303259e-001
  +1.17557050458e-001
  +1.71444889535e-016
  -1.17557050458e-001
  -1.90211303259e-001
  -1.90211303259e-001
  -1.17557050458e-001
  -1.95937016612e-016
  +1.17557050458e-001
  +1.90211303259e-001
  +1.90211303259e-001
  +1.17557050458e-001
  +2.20429143688e-016
  -1.17557050458e-001
  -1.90211303259e-001
  -1.90211303259e-001
  -1.17557050458e-001
  -2.44921270764e-016
  +1.17557050458e-001
  +1.90211303259e-001
  +1.90211303259e-001
  +1.17557050458e-001
  -4.41129337919e-016
  -1.17557050458e-001
  -1.90211303259e-001
  -1.90211303259e-001
  -1.17557050458e-001
  -2.93905524917e-016
  +1.17557050458e-001
  +1.90211303259e-001
  +1.90211303259e-001
  +1.17557050458e-001
  +1.02894038775e-015
  -1.17557050458e-001
  -1.90211303259e-001
  -1.90211303259e-001
  -1.17557050458e-001
  -3.42889779070e-016
  +1.17557050458e-001
  +1.90211303259e-001
  +1.90211303259e-001
  +1.17557050458e-001
  -3.43160829613e-016
  -1.17557050458e-001
  -1.90211303259e-001
  -1.90211303259e-001
  -1.17557050458e-001
  -3.91874033223e-016
  +1.17557050458e-001
  +1.90211303259e-001
  +1.90211303259e-001
  +1.17557050458e-001
  -2.94176575460e-016
  -1.17557050458e-001
  -1.90211303259e-001
  -1.90211303259e-001
  -1.17557050458e-001
  -4.40858287376e-016
  +1.17557050458e-001
  +1.90211303259e-001
  +1.90211303259e-001
  +1.17557050458e-001
  +1.17589315021e-015
  -1.17557050458e-001
  -1.90211303259e-001
  -1.90211303259e-001
  -1.17557050458e-001
  -4.89842541529e-016
</dep>
<dep fertig.Vt time>
  -1.50015795807e+000
  -1.45009606626e+000
  -1.36951446056e+000
  -1.32373960314e+000
  -1.34077270533e+000
  -1.41729698164e+000
  -1.52509248055e+000
  -1.62320604295e+000
  -1.67431665139e+000
  -1.65890751366e+000
  -1.58287514396e+000
  -1.47522716785e+000
  -1.37713008147e+000
  -1.32604311595e+000
  -1.34147676451e+000
  -1.41753498577e+000
  -1.52516584507e+000
  -1.62325792637e+000
  -1.67434336194e+000
  -1.65890924286e+000
  -1.58285087392e+000
  -1.47521996417e+000
  -1.37712786114e+000
  -1.32604241310e+000
  -1.34147652376e+000
  -1.41753488573e+000
  -1.52516578789e+000
  -1.62325788224e+000
  -1.67434332179e+000
  -1.65890920392e+000
  -1.58285083535e+000
  -1.47521992572e+000
  -1.37712782273e+000
  -1.32604237471e+000
  -1.34147648537e+000
  -1.41753484735e+000
  -1.52516574951e+000
  -1.62325784386e+000
  -1.67434328342e+000
  -1.65890916556e+000
  -1.58285079699e+000
  -1.47521988737e+000
  -1.37712778438e+000
  -1.32604233636e+000
  -1.34147644702e+000
  -1.41753480901e+000
  -1.52516571117e+000
  -1.62325780553e+000
  -1.67434324509e+000
  -1.65890912723e+000
  -1.58285075867e+000
  -1.47521984905e+000
  -1.37712774607e+000
  -1.32604229805e+000
  -1.34147640872e+000
  -1.41753477071e+000
  -1.52516567288e+000
  -1.62325776724e+000
  -1.67434320680e+000
  -1.65890908895e+000
  -1.58285072040e+000
  -1.47521981078e+000
  -1.37712770780e+000
  -1.32604225979e+000
  -1.34147637046e+000
  -1.41753473246e+000
  -1.52516563463e+000
  -1.62325772899e+000
  -1.67434316856e+000
  -1.65890905071e+000
  -1.58285068216e+000
  -1.47521977255e+000
  -1.37712766958e+000
  -1.32604222157e+000
  -1.34147633224e+000
  -1.41753469424e+000
  -1.52516559642e+000
  -1.62325769079e+000
  -1.67434313036e+000
  -1.65890901252e+000
  -1.58285064397e+000
  -1.47521973436e+000
  -1.37712763139e+000
  -1.32604218339e+000
  -1.34147629407e+000
  -1.41753465607e+000
  -1.52516555825e+000
  -1.62325765262e+000
  -1.67434309220e+000
  -1.65890897436e+000
  -1.58285060582e+000
  -1.47521969621e+000
  -1.37712759325e+000
  -1.32604214525e+000
  -1.34147625593e+000
  -1.41753461794e+000
  -1.52516552012e+000
  -1.62325761450e+000
  -1.67434305408e+000
  -1.65890893625e+000
  -1.58285056771e+000
</dep>
<dep verst.Vt time>
  -1.50015795807e+000
  -1.38260783025e+000
  -1.30997121794e+000
  -1.30999283772e+000
  -1.38266443019e+000
  -1.50022791359e+000
  -1.61777803027e+000
  -1.69041463557e+000
  -1.69039300778e+000
  -1.61772141279e+000
  -1.50015792239e+000
  -1.38260779720e+000
  -1.30997119226e+000
  -1.30999282114e+000
  -1.38266442086e+000
  -1.50022790816e+000
  -1.61777802478e+000
  -1.69041462050e+000
  -1.69039298394e+000
  -1.61772137806e+000
  -1.50015788400e+000
  -1.38260775876e+000
  -1.30997115383e+000
  -1.30999278271e+000
  -1.38266438243e+000
  -1.50022786974e+000
  -1.61777798636e+000
  -1.69041458209e+000
  -1.69039294553e+000
  -1.61772133965e+000
  -1.50015784560e+000
  -1.38260772036e+000
  -1.30997111544e+000
  -1.30999274432e+000
  -1.38266434405e+000
  -1.50022783136e+000
  -1.61777794799e+000
  -1.69041454372e+000
  -1.69039290716e+000
  -1.61772130129e+000
  -1.50015780724e+000
  -1.38260768201e+000
  -1.30997107709e+000
  -1.30999270598e+000
  -1.38266430571e+000
  -1.50022779303e+000
  -1.61777790965e+000
  -1.69041450539e+000
  -1.69039286884e+000
  -1.61772126297e+000
  -1.50015776893e+000
  -1.38260764370e+000
  -1.30997103878e+000
  -1.30999266767e+000
  -1.38266426741e+000
  -1.50022775473e+000
  -1.61777787136e+000
  -1.69041446710e+000
  -1.69039283056e+000
  -1.61772122469e+000
  -1.50015773065e+000
  -1.38260760543e+000
  -1.30997100052e+000
  -1.30999262941e+000
  -1.38266422915e+000
  -1.50022771648e+000
  -1.61777783311e+000
  -1.69041442886e+000
  -1.69039279232e+000
  -1.61772118646e+000
  -1.50015769242e+000
  -1.38260756720e+000
  -1.30997096229e+000
  -1.30999259119e+000
  -1.38266419093e+000
  -1.50022767827e+000
  -1.61777779491e+000
  -1.69041439065e+000
  -1.69039275412e+000
  -1.61772114826e+000
  -1.50015765423e+000
  -1.38260752902e+000
  -1.30997092411e+000
  -1.30999255302e+000
  -1.38266415276e+000
  -1.50022764010e+000
  -1.61777775674e+000
  -1.69041435249e+000
  -1.69039271596e+000
  -1.61772111011e+000
  -1.50015761608e+000
  -1.38260749087e+000
  -1.30997088597e+000
  -1.30999251488e+000
  -1.38266411463e+000
  -1.50022760197e+000
  -1.61777771862e+000
  -1.69041431438e+000
  -1.69039267785e+000
  -1.61772107200e+000
  -1.50015757798e+000
</dep>
<dep _net6.Vt time>
  +1.51262191617e-006
  +5.87765765300e-002
  +9.50948826872e-002
  +9.50840727986e-002
  +5.87482765631e-002
  -3.34651396358e-005
  -5.88085234776e-002
  -9.51268261306e-002
  -9.51160122320e-002
  -5.87802147403e-002
  +1.53046028650e-006
  +5.87765930580e-002
  +9.50948955238e-002
  +9.50840810868e-002
  +5.87482812288e-002
  -3.34624258476e-005
  -5.88085207328e-002
  -9.51268185933e-002
  -9.51160003123e-002
  -5.87801973713e-002
  +1.54965689769e-006
  +5.87766122771e-002
  +9.50949147408e-002
  +9.50841003016e-002
  +5.87483004415e-002
  -3.34432152239e-005
  -5.88085015243e-002
  -9.51267993869e-002
  -9.51159811080e-002
  -5.87801781691e-002
  +1.56885695834e-006
  +5.87766314750e-002
  +9.50949339366e-002
  +9.50841194954e-002
  +5.87483196331e-002
  -3.34240257204e-005
  -5.88084823369e-002
  -9.51267802016e-002
  -9.51159619248e-002
  -5.87801589881e-002
  +1.58803591044e-006
  +5.87766506519e-002
  +9.50949531114e-002
  +9.50841386680e-002
  +5.87483388036e-002
  -3.34048573136e-005
  -5.88084631706e-002
  -9.51267610374e-002
  -9.51159427628e-002
  -5.87801398281e-002
  +1.60719377762e-006
  +5.87766698076e-002
  +9.50949722650e-002
  +9.50841578195e-002
  +5.87483579531e-002
  -3.33857099810e-005
  -5.88084440254e-002
  -9.51267418943e-002
  -9.51159236217e-002
  -5.87801206892e-002
  +1.62633058221e-006
  +5.87766889423e-002
  +9.50949913976e-002
  +9.50841769500e-002
  +5.87483770815e-002
  -3.33665836977e-005
  -5.88084249012e-002
  -9.51267227722e-002
  -9.51159045018e-002
  -5.87801015713e-002
  +1.64544634829e-006
  +5.87767080560e-002
  +9.50950105092e-002
  +9.50841960595e-002
  +5.87483961888e-002
  -3.33474784431e-005
  -5.88084057980e-002
  -9.51267036712e-002
  -9.51158854028e-002
  -5.87800824745e-002
  +1.66454109851e-006
  +5.87767271486e-002
  +9.50950295997e-002
  +9.50842151479e-002
  +5.87484152752e-002
  -3.33283941922e-005
  -5.88083867159e-002
  -9.51266845911e-002
  -9.51158663249e-002
  -5.87800633986e-002
  +1.68361485597e-006
  +5.87767462203e-002
  +9.50950486693e-002
  +9.50842342154e-002
  +5.87484343405e-002
  -3.33093309217e-005
  -5.88083676547e-002
  -9.51266655321e-002
  -9.51158472679e-002
  -5.87800443437e-002
  +1.70266764365e-006
</dep>
<dep _net7.Vt time>
  +6.12880790929e-018
  +5.87751841792e-002
  +9.50935644365e-002
  +9.50827545259e-002
  +5.87468841545e-002
  -3.49778332628e-005
  -5.88101569126e-002
  -9.51285344264e-002
  -9.51177205054e-002
  -5.87818481171e-002
  +1.78384069145e-008
  +5.87752007072e-002
  +9.50935772732e-002
  +9.50827628141e-002
  +5.87468888202e-002
  -3.49751194690e-005
  -5.88101541678e-002
  -9.51285268890e-002
  -9.51177085857e-002
  -5.87818307480e-002
  +3.70350574605e-008
  +5.87752199264e-002
  +9.50935964902e-002
  +9.50827820290e-002
  +5.87469080330e-002
  -3.49559088060e-005
  -5.88101349592e-002
  -9.51285076826e-002
  -9.51176893814e-002
  -5.87818115458e-002
  +5.62351574722e-008
  +5.87752391243e-002
  +9.50936156860e-002
  +9.50828012227e-002
  +5.87469272246e-002
  -3.49367192631e-005
  -5.88101157718e-002
  -9.51284884973e-002
  -9.51176701982e-002
  -5.87817923647e-002
  +7.54141488901e-008
  +5.87752583012e-002
  +9.50936348608e-002
  +9.50828203954e-002
  +5.87469463952e-002
  -3.49175508171e-005
  -5.88100966055e-002
  -9.51284693330e-002
  -9.51176510360e-002
  -5.87817732047e-002
  +9.45720553488e-008
  +5.87752774570e-002
  +9.50936540145e-002
  +9.50828395470e-002
  +5.87469655446e-002
  -3.48984034452e-005
  -5.88100774602e-002
  -9.51284501899e-002
  -9.51176318950e-002
  -5.87817540657e-002
  +1.13708899168e-007
  +5.87752965918e-002
  +9.50936731471e-002
  +9.50828586775e-002
  +5.87469846731e-002
  -3.48792771226e-005
  -5.88100583360e-002
  -9.51284310678e-002
  -9.51176127750e-002
  -5.87817349478e-002
  +1.32824704440e-007
  +5.87753157055e-002
  +9.50936922587e-002
  +9.50828777870e-002
  +5.87470037805e-002
  -3.48601718289e-005
  -5.88100392328e-002
  -9.51284119667e-002
  -9.51175936760e-002
  -5.87817158509e-002
  +1.51919493813e-007
