<Qucs Dataset 0.0.17>
<indep y 1>
  +5.00000000000e+004
</indep>
<indep z 1>
  +5.00000000000e+004
</indep>
<indep a 1>
  +5.00000000000e-001
</indep>
<indep w 1>
  +1.00000000000e+005
</indep>
<indep time 101>
  +0.00000000000e+000
  +1.00000000000e-005
  +2.00000000000e-005
  +3.00000000000e-005
  +4.00000000000e-005
  +5.00000000000e-005
  +6.00000000000e-005
  +7.00000000000e-005
  +8.00000000000e-005
  +9.00000000000e-005
  +1.00000000000e-004
  +1.10000000000e-004
  +1.20000000000e-004
  +1.30000000000e-004
  +1.40000000000e-004
  +1.50000000000e-004
  +1.60000000000e-004
  +1.70000000000e-004
  +1.80000000000e-004
  +1.90000000000e-004
  +2.00000000000e-004
  +2.10000000000e-004
  +2.20000000000e-004
  +2.30000000000e-004
  +2.40000000000e-004
  +2.50000000000e-004
  +2.60000000000e-004
  +2.70000000000e-004
  +2.80000000000e-004
  +2.90000000000e-004
  +3.00000000000e-004
  +3.10000000000e-004
  +3.20000000000e-004
  +3.30000000000e-004
  +3.40000000000e-004
  +3.50000000000e-004
  +3.60000000000e-004
  +3.70000000000e-004
  +3.80000000000e-004
  +3.90000000000e-004
  +4.00000000000e-004
  +4.10000000000e-004
  +4.20000000000e-004
  +4.30000000000e-004
  +4.40000000000e-004
  +4.50000000000e-004
  +4.60000000000e-004
  +4.70000000000e-004
  +4.80000000000e-004
  +4.90000000000e-004
  +5.00000000000e-004
  +5.10000000000e-004
  +5.20000000000e-004
  +5.30000000000e-004
  +5.40000000000e-004
  +5.50000000000e-004
  +5.60000000000e-004
  +5.70000000000e-004
  +5.80000000000e-004
  +5.90000000000e-004
  +6.00000000000e-004
  +6.10000000000e-004
  +6.20000000000e-004
  +6.30000000000e-004
  +6.40000000000e-004
  +6.50000000000e-004
  +6.60000000000e-004
  +6.70000000000e-004
  +6.80000000000e-004
  +6.90000000000e-004
  +7.00000000000e-004
  +7.10000000000e-004
  +7.20000000000e-004
  +7.30000000000e-004
  +7.40000000000e-004
  +7.50000000000e-004
  +7.60000000000e-004
  +7.70000000000e-004
  +7.80000000000e-004
  +7.90000000000e-004
  +8.00000000000e-004
  +8.10000000000e-004
  +8.20000000000e-004
  +8.30000000000e-004
  +8.40000000000e-004
  +8.50000000000e-004
  +8.60000000000e-004
  +8.70000000000e-004
  +8.80000000000e-004
  +8.90000000000e-004
  +9.00000000000e-004
  +9.10000000000e-004
  +9.20000000000e-004
  +9.30000000000e-004
  +9.40000000000e-004
  +9.50000000000e-004
  +9.60000000000e-004
  +9.70000000000e-004
  +9.80000000000e-004
  +9.90000000000e-004
  +1.00000000000e-003
</indep>
<dep V3.It time>
  -1.29996750081e-004
  -1.29996750081e-004
  -1.29996750081e-004
  -1.29996750081e-004
  -1.29996750081e-004
  -1.29996750081e-004
  -1.29996750081e-004
  -1.29996750081e-004
  -1.29996750081e-004
  -1.29996750081e-004
  -1.29996750081e-004
  -1.29996750081e-004
  -1.29996750081e-004
  -1.29996750081e-004
  -1.29996750081e-004
  -1.29996750081e-004
  -1.29996750081e-004
  -1.29996750081e-004
  -1.29996750081e-004
  -1.29996750081e-004
  -1.29996750081e-004
  -1.29996750081e-004
  -1.29996750081e-004
  -1.29996750081e-004
  -1.29996750081e-004
  -1.29996750081e-004
  -1.29996750081e-004
  -1.29996750081e-004
  -1.29996750081e-004
  -1.29996750081e-004
  -1.29996750081e-004
  -1.29996750081e-004
  -1.29996750081e-004
  -1.29996750081e-004
  -1.29996750081e-004
  -1.29996750081e-004
  -1.29996750081e-004
  -1.29996750081e-004
  -1.29996750081e-004
  -1.29996750081e-004
  -1.29996750081e-004
  -1.29996750081e-004
  -1.29996750081e-004
  -1.29996750081e-004
  -1.29996750081e-004
  -1.29996750081e-004
  -1.29996750081e-004
  -1.29996750081e-004
  -1.29996750081e-004
  -1.29996750081e-004
  -1.29996750081e-004
  -1.29996750081e-004
  -1.29996750081e-004
  -1.29996750081e-004
  -1.29996750081e-004
  -1.29996750081e-004
  -1.29996750081e-004
  -1.29996750081e-004
  -1.29996750081e-004
  -1.29996750081e-004
  -1.29996750081e-004
  -1.29996750081e-004
  -1.29996750081e-004
  -1.29996750081e-004
  -1.29996750081e-004
  -1.29996750081e-004
  -1.29996750081e-004
  -1.29996750081e-004
  -1.29996750081e-004
  -1.29996750081e-004
  -1.29996750081e-004
  -1.29996750081e-004
  -1.29996750081e-004
  -1.29996750081e-004
  -1.29996750081e-004
  -1.29996750081e-004
  -1.29996750081e-004
  -1.29996750081e-004
  -1.29996750081e-004
  -1.29996750081e-004
  -1.29996750081e-004
  -1.29996750081e-004
  -1.29996750081e-004
  -1.29996750081e-004
  -1.29996750081e-004
  -1.29996750081e-004
  -1.29996750081e-004
  -1.29996750081e-004
  -1.29996750081e-004
  -1.29996750081e-004
  -1.29996750081e-004
  -1.29996750081e-004
  -1.29996750081e-004
  -1.29996750081e-004
  -1.29996750081e-004
  -1.29996750081e-004
  -1.29996750081e-004
  -1.29996750081e-004
  -1.29996750081e-004
  -1.29996750081e-004
  -1.29996750081e-004
</dep>
<dep V2.It time>
  -1.29996750081e-004
  -1.29996750081e-004
  -1.29996750081e-004
  -1.29996750081e-004
  -1.29996750081e-004
  -1.29996750081e-004
  -1.29996750081e-004
  -1.29996750081e-004
  -1.29996750081e-004
  -1.29996750081e-004
  -1.29996750081e-004
  -1.29996750081e-004
  -1.29996750081e-004
  -1.29996750081e-004
  -1.29996750081e-004
  -1.29996750081e-004
  -1.29996750081e-004
  -1.29996750081e-004
  -1.29996750081e-004
  -1.29996750081e-004
  -1.29996750081e-004
  -1.29996750081e-004
  -1.29996750081e-004
  -1.29996750081e-004
  -1.29996750081e-004
  -1.29996750081e-004
  -1.29996750081e-004
  -1.29996750081e-004
  -1.29996750081e-004
  -1.29996750081e-004
  -1.29996750081e-004
  -1.29996750081e-004
  -1.29996750081e-004
  -1.29996750081e-004
  -1.29996750081e-004
  -1.29996750081e-004
  -1.29996750081e-004
  -1.29996750081e-004
  -1.29996750081e-004
  -1.29996750081e-004
  -1.29996750081e-004
  -1.29996750081e-004
  -1.29996750081e-004
  -1.29996750081e-004
  -1.29996750081e-004
  -1.29996750081e-004
  -1.29996750081e-004
  -1.29996750081e-004
  -1.29996750081e-004
  -1.29996750081e-004
  -1.29996750081e-004
  -1.29996750081e-004
  -1.29996750081e-004
  -1.29996750081e-004
  -1.29996750081e-004
  -1.29996750081e-004
  -1.29996750081e-004
  -1.29996750081e-004
  -1.29996750081e-004
  -1.29996750081e-004
  -1.29996750081e-004
  -1.29996750081e-004
  -1.29996750081e-004
  -1.29996750081e-004
  -1.29996750081e-004
  -1.29996750081e-004
  -1.29996750081e-004
  -1.29996750081e-004
  -1.29996750081e-004
  -1.29996750081e-004
  -1.29996750081e-004
  -1.29996750081e-004
  -1.29996750081e-004
  -1.29996750081e-004
  -1.29996750081e-004
  -1.29996750081e-004
  -1.29996750081e-004
  -1.29996750081e-004
  -1.29996750081e-004
  -1.29996750081e-004
  -1.29996750081e-004
  -1.29996750081e-004
  -1.29996750081e-004
  -1.29996750081e-004
  -1.29996750081e-004
  -1.29996750081e-004
  -1.29996750081e-004
  -1.29996750081e-004
  -1.29996750081e-004
  -1.29996750081e-004
  -1.29996750081e-004
  -1.29996750081e-004
  -1.29996750081e-004
  -1.29996750081e-004
  -1.29996750081e-004
  -1.29996750081e-004
  -1.29996750081e-004
  -1.29996750081e-004
  -1.29996750081e-004
  -1.29996750081e-004
  -1.29996750081e-004
</dep>
<dep V1.It time>
  -7.37295635131e-024
  -7.05320422700e-007
  -1.14118865030e-006
  -1.14111783739e-006
  -7.05135038601e-007
  +2.29134906567e-010
  +7.05549556687e-007
  +1.14141779929e-006
  +1.14134701106e-006
  +7.05364247288e-007
  +7.37564120611e-014
  -7.05320356664e-007
  -1.14118858456e-006
  -1.14111777215e-006
  -7.05134974940e-007
  +2.29198622304e-010
  +7.05549609021e-007
  +1.14141783439e-006
  +1.14134702462e-006
  +7.05364224027e-007
  +4.12902242095e-014
  -7.05320382856e-007
  -1.14118860911e-006
  -1.14111779767e-006
  -7.05134997189e-007
  +2.29174006852e-010
  +7.05549585086e-007
  +1.14141781044e-006
  +1.14134700018e-006
  +7.05364200064e-007
  +1.72147399070e-014
  -7.05320406813e-007
  -1.14118863309e-006
  -1.14111782030e-006
  -7.05135022744e-007
  +2.29150721176e-010
  +7.05549560209e-007
  +1.14141778552e-006
  +1.14134697583e-006
  +7.05364175035e-007
  -7.33035977978e-015
  -7.05320430966e-007
  -1.14118865770e-006
  -1.14111784600e-006
  -7.05135048207e-007
  +2.29126976553e-010
  +7.05549540907e-007
  +1.14141777748e-006
  +1.14134698167e-006
  +7.05364192910e-007
  +1.49969641616e-014
  -7.05320413027e-007
  -1.14118864001e-006
  -1.14111782671e-006
  -7.05135029230e-007
  +2.29144229998e-010
  +7.05549554519e-007
  +1.14141778047e-006
  +1.14134697167e-006
  +7.05364172148e-007
  -9.85199987694e-015
  -7.05320433814e-007
  -1.14118866260e-006
  -1.14111784883e-006
  -7.05135051045e-007
  +2.29122619095e-010
  +7.05549532971e-007
  +1.14141778918e-006
  +1.14134702790e-006
  +7.05364263835e-007
  +8.26980102314e-014
  -7.05320344255e-007
  -1.14118857154e-006
  -1.14111775978e-006
  -7.05134962290e-007
  +2.29211154882e-010
  +7.05549621368e-007
  +1.14141784727e-006
  +1.14134703846e-006
  +7.05364238964e-007
  +5.69553761334e-014
  -7.05320367075e-007
  -1.14118859448e-006
  -1.14111778204e-006
  -7.05134984249e-007
  +2.29189410014e-010
  +7.05549599730e-007
  +1.14141786159e-006
  +1.14134708325e-006
  +7.05364306839e-007
  +1.33860520711e-013
  -7.05320296887e-007
  -1.14118852432e-006
  -1.14111771153e-006
  -7.05134912883e-007
  +2.29260130388e-010
  +7.05549668420e-007
  +1.14141791741e-006
  +1.14134713532e-006
  +7.05364330567e-007
  +1.46633230462e-013
</dep>
<dep _net0.Vt time>
  +0.00000000000e+000
  +1.17557050458e-001
  +1.90211303259e-001
  +1.90211303259e-001
  +1.17557050458e-001
  +2.44921270764e-017
  -1.17557050458e-001
  -1.90211303259e-001
  -1.90211303259e-001
  -1.17557050458e-001
  -4.89842541529e-017
  +1.17557050458e-001
  +1.90211303259e-001
  +1.90211303259e-001
  +1.17557050458e-001
  +7.34763812293e-017
  -1.17557050458e-001
  -1.90211303259e-001
  -1.90211303259e-001
  -1.17557050458e-001
  -9.79685083058e-017
  +1.17557050458e-001
  +1.90211303259e-001
  +1.90211303259e-001
  +1.17557050458e-001
  +1.22460635382e-016
  -1.17557050458e-001
  -1.90211303259e-001
  -1.90211303259e-001
  -1.17557050458e-001
  -1.46952762459e-016
  +1.17557050458e-001
  +1.90211303259e-001
  +1.90211303259e-001
  +1.17557050458e-001
  +1.71444889535e-016
  -1.17557050458e-001
  -1.90211303259e-001
  -1.90211303259e-001
  -1.17557050458e-001
  -1.95937016612e-016
  +1.17557050458e-001
  +1.90211303259e-001
  +1.90211303259e-001
  +1.17557050458e-001
  +2.20429143688e-016
  -1.17557050458e-001
  -1.90211303259e-001
  -1.90211303259e-001
  -1.17557050458e-001
  -2.44921270764e-016
  +1.17557050458e-001
  +1.90211303259e-001
  +1.90211303259e-001
  +1.17557050458e-001
  -4.41129337919e-016
  -1.17557050458e-001
  -1.90211303259e-001
  -1.90211303259e-001
  -1.17557050458e-001
  -2.93905524917e-016
  +1.17557050458e-001
  +1.90211303259e-001
  +1.90211303259e-001
  +1.17557050458e-001
  +1.02894038775e-015
  -1.17557050458e-001
  -1.90211303259e-001
  -1.90211303259e-001
  -1.17557050458e-001
  -3.42889779070e-016
  +1.17557050458e-001
  +1.90211303259e-001
  +1.90211303259e-001
  +1.17557050458e-001
  -3.43160829613e-016
  -1.17557050458e-001
  -1.90211303259e-001
  -1.90211303259e-001
  -1.17557050458e-001
  -3.91874033223e-016
  +1.17557050458e-001
  +1.90211303259e-001
  +1.90211303259e-001
  +1.17557050458e-001
  -2.94176575460e-016
  -1.17557050458e-001
  -1.90211303259e-001
  -1.90211303259e-001
  -1.17557050458e-001
  -4.40858287376e-016
  +1.17557050458e-001
  +1.90211303259e-001
  +1.90211303259e-001
  +1.17557050458e-001
  +1.17589315021e-015
  -1.17557050458e-001
  -1.90211303259e-001
  -1.90211303259e-001
  -1.17557050458e-001
  -4.89842541529e-016
</dep>
<dep fertig.Vt time>
  -1.50015795807e+000
  -1.00000786156e+000
  -1.96104244749e-001
  +2.60243522445e-001
  +9.00089749955e-002
  -6.73662834587e-001
  -1.74841980673e+000
  -2.72740198373e+000
  -3.23726313724e+000
  -3.08359855475e+000
  -2.32511179553e+000
  -1.25158292096e+000
  -2.72807428203e-001
  +2.36856583724e-001
  +8.28805347115e-002
  -6.75827345022e-001
  -1.74938515907e+000
  -2.72786301077e+000
  -3.23748519461e+000
  -3.08358512551e+000
  -2.32494351966e+000
  -1.25133431543e+000
  -2.72718984861e-001
  +2.36882284030e-001
  +8.28883095598e-002
  -6.75821232529e-001
  -1.74938841236e+000
  -2.72786408353e+000
  -3.23748553592e+000
  -3.08358516063e+000
  -2.32494339384e+000
  -1.25133411449e+000
  -2.72719097192e-001
  +2.36885053510e-001
  +8.28872220572e-002
  -6.75823687521e-001
  -1.74938646380e+000
  -2.72786536387e+000
  -3.23748663581e+000
  -3.08358475974e+000
  -2.32494136036e+000
  -1.25133112761e+000
  -2.72717968292e-001
  +2.36883123022e-001
  +8.28888260929e-002
  -6.75836486662e-001
  -1.74928920215e+000
  -2.72772627106e+000
  -3.23739020396e+000
  -3.08357736292e+000
  -2.32502872725e+000
  -1.25148077027e+000
  -2.72768640783e-001
  +2.36871482806e-001
  +8.28844892904e-002
  -6.75827637679e-001
  -1.74937867543e+000
  -2.72785448581e+000
  -3.23747854837e+000
  -3.08358307517e+000
  -2.32494687944e+000
  -1.25134178819e+000
  -2.72731726288e-001
  +2.36881043014e-001
  +8.28883134701e-002
  -6.75827330104e-001
  -1.74937680820e+000
  -2.72756597475e+000
  -3.23721074972e+000
  -3.08358031411e+000
  -2.32501297537e+000
  -1.25144677746e+000
  -2.72760093077e-001
  +2.36869918425e-001
  +8.28832023780e-002
  -6.75822875681e-001
  -1.74938422139e+000
  -2.72785630158e+000
  -3.23747921437e+000
  -3.08358336371e+000
  -2.32494702253e+000
  -1.25134186492e+000
  -2.72731904374e-001
  +2.36880912077e-001
  +8.28882131017e-002
  -6.75827340341e-001
  -1.74937722790e+000
  -2.72750737856e+000
  -3.23725817330e+000
  -3.08356350517e+000
  -2.32512418714e+000
  -1.25159637626e+000
  -2.72807881842e-001
  +2.36857722517e-001
  +8.28811195492e-002
  -6.75824321239e-001
  -1.74943751059e+000
  -2.72764791629e+000
  -3.23731755542e+000
  -3.08352545139e+000
  -2.32489423524e+000
</dep>
<dep verst.Vt time>
  -1.50015795807e+000
  -3.27581733382e-001
  +3.97036123175e-001
  +3.96918400110e-001
  -3.27889929202e-001
  -1.50053888883e+000
  -2.67311501638e+000
  -3.39773274110e+000
  -3.39761505800e+000
  -2.67280694807e+000
  -1.50015808069e+000
  -3.27581843486e-001
  +3.97036014456e-001
  +3.96918291643e-001
  -3.27890035037e-001
  -1.50053899477e+000
  -2.67311510327e+000
  -3.39773279874e+000
  -3.39761507982e+000
  -2.67280690602e+000
  -1.50015802671e+000
  -3.27581800315e-001
  +3.97036055258e-001
  +3.96918333007e-001
  -3.27889995267e-001
  -1.50053895500e+000
  -2.67311506348e+000
  -3.39773275894e+000
  -3.39761503999e+000
  -2.67280686618e+000
  -1.50015798687e+000
  -3.27581760486e-001
  +3.97036095120e-001
  +3.96918371690e-001
  -3.27889955438e-001
  -1.50053891512e+000
  -2.67311502348e+000
  -3.39773271864e+000
  -3.39761499934e+000
  -2.67280682526e+000
  -1.50015794588e+000
  -3.27581719639e-001
  +3.97036136046e-001
  +3.96918413570e-001
  -3.27889916009e-001
  -1.50053887565e+000
  -2.67311499054e+000
  -3.39773270470e+000
  -3.39761500921e+000
  -2.67280685463e+000
  -1.50015798300e+000
  -3.27581749797e-001
  +3.97036106940e-001
  +3.96918382758e-001
  -3.27889944781e-001
  -1.50053890435e+000
  -2.67311501319e+000
  -3.39773270989e+000
  -3.39761499263e+000
  -2.67280682029e+000
  -1.50015794169e+000
  -3.27581714970e-001
  +3.97036142545e-001
  +3.96918419124e-001
  -3.27889908862e-001
  -1.50053886840e+000
  -2.67311497734e+000
  -3.39773272430e+000
  -3.39761508612e+000
  -2.67280697220e+000
  -1.50015809555e+000
  -3.27581863967e-001
  +3.97035992798e-001
  +3.96918270526e-001
  -3.27890056067e-001
  -1.50053901559e+000
  -2.67311512432e+000
  -3.39773282101e+000
  -3.39761510373e+000
  -2.67280693137e+000
  -1.50015805276e+000
  -3.27581826030e-001
  +3.97036031503e-001
  +3.96918308088e-001
  -3.27890019907e-001
  -1.50053897944e+000
  -2.67311508835e+000
  -3.39773284476e+000
  -3.39761517812e+000
  -2.67280704421e+000
  -1.50015818061e+000
  -3.27581942889e-001
  +3.97035914301e-001
  +3.96918190865e-001
  -3.27890137443e-001
  -1.50053909701e+000
  -2.67311520243e+000
  -3.39773293733e+000
  -3.39761526384e+000
  -2.67280708366e+000
  -1.50015820184e+000
</dep>
<dep _net6.Vt time>
  +1.51262191617e-006
  +5.86289624966e-001
  +9.48598553244e-001
  +9.48539691711e-001
  +5.86135527055e-001
  -1.88952760184e-004
  -5.86477016531e-001
  -9.48785878895e-001
  -9.48727037342e-001
  -5.86322982377e-001
  +1.45131286733e-006
  +5.86289569913e-001
  +9.48598498884e-001
  +9.48539637478e-001
  +5.86135474138e-001
  -1.89005727633e-004
  -5.86477059980e-001
  -9.48785907715e-001
  -9.48727048252e-001
  -5.86322961352e-001
  +1.47829995956e-006
  +5.86289591499e-001
  +9.48598519285e-001
  +9.48539658160e-001
  +5.86135494023e-001
  -1.88985841938e-004
  -5.86477040085e-001
  -9.48785887812e-001
  -9.48727028339e-001
  -5.86322941433e-001
  +1.49821956263e-006
  +5.86289611413e-001
  +9.48598539216e-001
  +9.48539677502e-001
  +5.86135513937e-001
  -1.88965905478e-004
  -5.86477020086e-001
  -9.48785867662e-001
  -9.48727008013e-001
  -5.86322920975e-001
  +1.51871518139e-006
  +5.86289631837e-001
  +9.48598559679e-001
  +9.48539698441e-001
  +5.86135533652e-001
  -1.88946168107e-004
  -5.86477003614e-001
  -9.48785860696e-001
  -9.48727012948e-001
  -5.86322935659e-001
  +1.50015588674e-006
  +5.86289616758e-001
  +9.48598545126e-001
  +9.48539683035e-001
  +5.86135519266e-001
  -1.88960517568e-004
  -5.86477014937e-001
  -9.48785863289e-001
  -9.48727004658e-001
  -5.86322918489e-001
  +1.52081126170e-006
  +5.86289634171e-001
  +9.48598562929e-001
  +9.48539701218e-001
  +5.86135537225e-001
  -1.88942546000e-004
  -5.86476997011e-001
  -9.48785870496e-001
  -9.48727051402e-001
  -5.86322994442e-001
  +1.44388028134e-006
  +5.86289559673e-001
  +9.48598488055e-001
  +9.48539626919e-001
  +5.86135463623e-001
  -1.89016140185e-004
  -5.86477070505e-001
  -9.48785918848e-001
  -9.48727060207e-001
  -5.86322974028e-001
  +1.46527850775e-006
  +5.86289578641e-001
  +9.48598507408e-001
  +9.48539645700e-001
  +5.86135481703e-001
  -1.88998065071e-004
  -5.86477052518e-001
  -9.48785930725e-001
  -9.48727097404e-001
  -5.86323030448e-001
  +1.40135211635e-006
  +5.86289520212e-001
  +9.48598448807e-001
  +9.48539587089e-001
  +5.86135422935e-001
  -1.89056850373e-004
  -5.86477109561e-001
  -9.48785977007e-001
  -9.48727140264e-001
  -5.86323050172e-001
  +1.39073496908e-006
</dep>
<dep _net7.Vt time>
  +6.12880790929e-018
  +5.86289297255e-001
  +9.48598950509e-001
  +9.48540088859e-001
  +5.86135199037e-001
  -1.90465772591e-004
  -5.86479761728e-001
  -9.48789427666e-001
  -9.48730585979e-001
  -5.86325727240e-001
  -6.13091745263e-008
  +5.86289242203e-001
  +9.48598896149e-001
  +9.48540034625e-001
  +5.86135146119e-001
  -1.90518740149e-004
  -5.86479805177e-001
  -9.48789456486e-001
  -9.48730596889e-001
  -5.86325706215e-001
  -3.43220269703e-008
  +5.86289263788e-001
  +9.48598916550e-001
  +9.48540055307e-001
  +5.86135166004e-001
  -1.90498854413e-004
  -5.86479785281e-001
  -9.48789436583e-001
  -9.48730576976e-001
  -5.86325686296e-001
  -1.44023830533e-008
  +5.86289283703e-001
  +9.48598936481e-001
  +9.48540074649e-001
  +5.86135185918e-001
  -1.90478917912e-004
  -5.86479765283e-001
  -9.48789416433e-001
  -9.48730556650e-001
  -5.86325665838e-001
  +6.09327772415e-009
  +5.86289304127e-001
  +9.48598956944e-001
  +9.48540095588e-001
  +5.86135205633e-001
  -1.90459180501e-004
  -5.86479748810e-001
  -9.48789409467e-001
  -9.48730561585e-001
  -5.86325680522e-001
  -1.24660549824e-008
  +5.86289289048e-001
  +9.48598942391e-001
  +9.48540080182e-001
  +5.86135191247e-001
  -1.90473529991e-004
  -5.86479760134e-001
  -9.48789412060e-001
  -9.48730553295e-001
  -5.86325663352e-001
  +8.18936233081e-009
  +5.86289306461e-001
  +9.48598960194e-001
  +9.48540098365e-001
  +5.86135209207e-001
  -1.90455558386e-004
  -5.86479742208e-001
  -9.48789419267e-001
  -9.48730600039e-001
  -5.86325739305e-001
  -6.87417757556e-008
  +5.86289231962e-001
  +9.48598885320e-001
  +9.48540024066e-001
  +5.86135135604e-001
  -1.90529152722e-004
  -5.86479815702e-001
  -9.48789467619e-001
  -9.48730608844e-001
  -5.86325718891e-001
  -4.73435054723e-008
